date Sat Sep 09 02:01:26 AM 2018
base hex  timestamps absolute
internal events logged
Begin Triggerblock Sat Sep 09 02:01:26 AM 2018
   0.0004 Start of measurement
   0.0005 Start of logging...
   0.0017 1  CA              Rx   d 8 54 00 7F FE 00 00 10 00
 1537002086.4600 1  CD              Rx   d 2 7E F4
 1537002086.4603 1  153             Rx   d 6 3F 3F 00 01 00 FF
 1537002086.4609 1  CB              Rx   d 8 54 00 80 00 00 01 10 00
 1537002086.4610 1  CE              Rx   d 2 80 00
 1537002086.4612 1  154             Rx   d 6 3F 3F 00 01 00 FF
 1537002086.4699 1  CA              Rx   d 8 54 00 7F FE 00 00 30 00
 1537002086.4700 1  CD              Rx   d 2 7E F4
 1537002086.4702 1  153             Rx   d 6 3F 3F 00 01 00 FF
 1537002086.4709 1  CB              Rx   d 8 54 00 80 00 00 01 30 00
 1537002086.4710 1  CE              Rx   d 2 80 00
 1537002086.4712 1  154             Rx   d 6 3F 3F 00 01 00 FF
 1537002086.4799 1  CA              Rx   d 8 54 00 7F FE 00 00 50 00
 1537002086.4800 1  CD              Rx   d 2 7E F4
 1537002086.4802 1  153             Rx   d 6 3F 3F 00 01 00 FF
 1537002086.4809 1  CB              Rx   d 8 54 00 80 00 00 01 50 00
 1537002086.4810 1  CE              Rx   d 2 80 00
 1537002086.4812 1  154             Rx   d 6 3F 3F 00 01 00 FF
   0.0086 1  CA              Rx   d 8 54 00 7F FE 00 00 70 00
   0.0087 1  CD              Rx   d 2 7E F4
   0.0090 1  153             Rx   d 6 3F 3F 00 01 00 FF
   0.0096 1  CB              Rx   d 8 54 00 80 00 00 01 70 00
   0.0097 1  CE              Rx   d 2 80 00
   0.0099 1  154             Rx   d 6 3F 3F 00 01 00 FF
   0.0186 1  CA              Rx   d 8 54 00 7F FE 00 00 10 00
   0.0187 1  CD              Rx   d 2 7E F4
   0.0189 1  153             Rx   d 6 3F 3F 00 01 00 FF
   0.0196 1  CB              Rx   d 8 54 00 80 00 00 02 10 00
   0.0197 1  CE              Rx   d 2 80 00
   0.0199 1  154             Rx   d 6 3F 3F 00 01 00 FF
   0.0286 1  CA              Rx   d 8 54 00 7F FE 00 00 30 00
   0.0288 1  CD              Rx   d 2 7E F4
   0.0290 1  153             Rx   d 6 3F 3F 00 01 00 FF
   0.0291 1  386             Rx   d 5 D3 D2 D0 46 31
   0.0296 1  CB              Rx   d 8 54 00 80 00 00 02 30 00
   0.0297 1  CE              Rx   d 2 80 00
   0.0299 1  154             Rx   d 6 3F 3F 00 01 00 FF
   0.0301 1  387             Rx   d 5 D3 D2 D0 46 31
   0.0386 1  CA              Rx   d 8 54 00 7F FE 00 00 50 00
   0.0390 1  CD              Rx   d 2 7E F4
   0.0396 1  CB              Rx   d 8 54 00 80 00 00 02 50 00
   0.0397 1  CE              Rx   d 2 80 00
   0.0399 1  154             Rx   d 6 3F 3F 00 01 00 FF
   0.0486 1  CA              Rx   d 8 54 00 7F FE 00 00 70 00
   0.0487 1  CD              Rx   d 2 7E F4
   0.0489 1  153             Rx   d 6 3F 3F 00 01 00 FF
   0.0496 1  CB              Rx   d 8 54 00 80 00 00 02 70 00
   0.0497 1  CE              Rx   d 2 80 00
   0.0499 1  154             Rx   d 6 3F 3F 00 01 00 FF
   0.0586 1  CA              Rx   d 8 54 00 7F FE 00 00 10 00
   0.0587 1  CD              Rx   d 2 7E F4
   0.0590 1  153             Rx   d 6 3F 3F 00 01 00 FF
   0.0596 1  CB              Rx   d 8 54 00 80 00 00 02 10 00
   0.0597 1  CE              Rx   d 2 80 00
   0.0599 1  154             Rx   d 6 3F 3F 00 01 00 FF
   0.0705 1  047             Tx   d 7 84 00 00 00 00 5a 5f 
   0.0707 1  048             Tx   d 7 84 00 00 00 00 55 e4 
   0.0709 1  041             Tx   d 6 84 fa 00 03 06 aa 
   0.0710 1  042             Tx   d 6 84 fa 00 03 06 a5 
   0.0686 1  CA              Rx   d 8 54 00 7F FE 00 00 30 00
   0.0687 1  CD              Rx   d 2 7E F4
   0.0689 1  153             Rx   d 6 3F 3F 00 01 00 FF
   0.0696 1  CB              Rx   d 8 54 00 80 00 00 02 30 00
   0.0700 1  CE              Rx   d 2 80 00
   0.0704 1  154             Rx   d 6 3F 3F 00 01 00 FF
   0.0799 1  047             Tx   d 7 c4 00 00 00 00 5a 0f 
   0.0801 1  048             Tx   d 7 c4 00 00 00 00 55 b4 
   0.0802 1  041             Tx   d 6 c4 fa 00 03 06 aa 
   0.0804 1  042             Tx   d 6 c4 fa 00 03 06 a5 
   0.0787 1  CA              Rx   d 8 54 00 7F FE 00 00 50 00
   0.0790 1  CD              Rx   d 2 7E F4
   0.0794 1  153             Rx   d 6 3F 3F 00 01 00 FF
   0.0799 1  CB              Rx   d 8 54 00 80 00 00 02 50 00
   0.0803 1  CE              Rx   d 2 80 00
   0.0805 1  154             Rx   d 6 3F 3F 00 01 00 FF
   0.0895 1  047             Tx   d 7 04 00 00 00 00 5a ff 
   0.0897 1  048             Tx   d 7 04 00 00 00 00 55 44 
   0.0899 1  041             Tx   d 6 04 fa 00 03 06 aa 
   0.0900 1  042             Tx   d 6 04 fa 00 03 06 a5 
   0.0886 1  CA              Rx   d 8 54 00 7F FE 00 00 70 00
   0.0890 1  CD              Rx   d 2 7E F4
   0.0894 1  153             Rx   d 6 3F 3F 00 01 00 FF
   0.0898 1  CB              Rx   d 8 54 00 80 00 00 02 70 00
   0.0900 1  CE              Rx   d 2 80 00
   0.0902 1  154             Rx   d 6 3F 3F 00 01 00 FF
   0.0988 1  047             Tx   d 7 44 00 00 00 00 5a af 
   0.0990 1  048             Tx   d 7 44 00 00 00 00 55 14 
   0.0992 1  041             Tx   d 6 44 fa 00 03 06 aa 
   0.0993 1  042             Tx   d 6 44 fa 00 03 06 a5 
   0.0987 1  CA              Rx   d 8 54 00 7F FE 00 00 10 00
   0.0988 1  CD              Rx   d 2 7E F4
   0.0990 1  153             Rx   d 6 3F 3F 00 01 00 FF
   0.0997 1  CB              Rx   d 8 54 00 80 00 00 02 10 00
   0.0998 1  CE              Rx   d 2 80 00
   0.1000 1  154             Rx   d 6 3F 3F 00 01 00 FF
   0.1082 1  047             Tx   d 7 84 00 00 00 00 5a 5f 
   0.1084 1  048             Tx   d 7 84 00 00 00 00 55 e4 
   0.1085 1  041             Tx   d 6 84 fa 00 03 06 aa 
   0.1087 1  042             Tx   d 6 84 fa 00 03 06 a5 
   0.1087 1  CA              Rx   d 8 54 00 7F FE 00 00 30 00
   0.1088 1  CD              Rx   d 2 7E F4
   0.1090 1  153             Rx   d 6 3F 3F 00 01 00 FF
   0.1096 1  CB              Rx   d 8 54 00 80 00 00 02 30 00
   0.1098 1  CE              Rx   d 2 80 00
   0.1100 1  154             Rx   d 6 3F 3F 00 01 00 FF
   0.1175 1  047             Tx   d 7 c4 00 00 00 00 5a 0f 
   0.1177 1  048             Tx   d 7 c4 00 00 00 00 55 b4 
   0.1178 1  041             Tx   d 6 c4 fa 00 03 06 aa 
   0.1180 1  042             Tx   d 6 c4 fa 00 03 06 a5 
   0.1187 1  CA              Rx   d 8 54 00 7F FE 00 00 50 00
   0.1188 1  CD              Rx   d 2 7E F4
   0.1190 1  153             Rx   d 6 3F 3F 00 01 00 FF
   0.1196 1  CB              Rx   d 8 54 00 80 00 00 02 50 00
   0.1198 1  CE              Rx   d 2 80 00
   0.1200 1  154             Rx   d 6 3F 3F 00 01 00 FF
   0.1268 1  047             Tx   d 7 04 00 00 00 00 5a ff 
   0.1270 1  048             Tx   d 7 04 00 00 00 00 55 44 
   0.1272 1  041             Tx   d 6 04 fa 00 03 06 aa 
   0.1273 1  042             Tx   d 6 04 fa 00 03 06 a5 
   0.1287 1  CA              Rx   d 8 54 00 7F FE 00 00 70 00
   0.1288 1  CD              Rx   d 2 7E F4
   0.1290 1  153             Rx   d 6 3F 3F 00 01 00 FF
   0.1292 1  386             Rx   d 5 DB D8 D8 47 36
   0.1297 1  CB              Rx   d 8 54 00 80 00 00 02 70 00
   0.1298 1  CE              Rx   d 2 80 00
   0.1300 1  154             Rx   d 6 3F 3F 00 01 00 FF
   0.1302 1  387             Rx   d 5 DB D8 D8 47 36
   0.1371 1  047             Tx   d 7 44 00 00 00 00 5a af 
   0.1374 1  048             Tx   d 7 44 00 00 00 00 55 14 
   0.1376 1  041             Tx   d 6 44 fa 00 03 06 aa 
   0.1378 1  042             Tx   d 6 44 fa 00 03 06 a5 
   0.1387 1  CA              Rx   d 8 54 00 7F FE 00 00 10 00
   0.1388 1  CD              Rx   d 2 7E F4
   0.1390 1  153             Rx   d 6 3F 3F 00 01 00 FF
   0.1396 1  CB              Rx   d 8 54 00 80 00 00 02 10 00
   0.1398 1  CE              Rx   d 2 80 00
   0.1400 1  154             Rx   d 6 3F 3F 00 01 00 FF
   0.1467 1  047             Tx   d 7 84 00 00 00 00 5a 5f 
   0.1469 1  048             Tx   d 7 84 00 00 00 00 55 e4 
   0.1470 1  041             Tx   d 6 84 fa 00 03 06 aa 
   0.1471 1  042             Tx   d 6 84 fa 00 03 06 a5 
   0.1486 1  CA              Rx   d 8 54 00 7F FE 00 00 30 00
   0.1488 1  CD              Rx   d 2 7E F4
   0.1490 1  153             Rx   d 6 3F 3F 00 01 00 FF
   0.1561 1  047             Tx   d 7 c4 00 00 00 00 5a 0f 
   0.1563 1  048             Tx   d 7 c4 00 00 00 00 55 b4 
   0.1564 1  041             Tx   d 6 c4 fa 00 03 06 aa 
   0.1566 1  042             Tx   d 6 c4 fa 00 03 06 a5 
   0.1496 1  CB              Rx   d 8 54 00 80 00 00 02 30 00
   0.1498 1  CE              Rx   d 2 80 00
   0.1500 1  154             Rx   d 6 3F 3F 00 01 00 FF
   0.1587 1  CA              Rx   d 8 54 00 7F FE 00 01 50 00
   0.1588 1  CD              Rx   d 2 7E F4
   0.1590 1  153             Rx   d 6 3F 3F 00 01 00 FF
   0.1597 1  CB              Rx   d 8 54 00 80 00 00 02 50 00
   0.1598 1  CE              Rx   d 2 80 00
   0.1600 1  154             Rx   d 6 3F 3F 00 01 00 FF
   0.1655 1  047             Tx   d 7 04 00 00 00 00 5a ff 
   0.1657 1  048             Tx   d 7 04 00 00 00 00 55 44 
   0.1658 1  041             Tx   d 6 04 fa 00 03 06 aa 
   0.1660 1  042             Tx   d 6 04 fa 00 03 06 a5 
   0.1687 1  CA              Rx   d 8 54 00 7F FE 00 01 70 00
   0.1688 1  CD              Rx   d 2 7E F4
   0.1690 1  153             Rx   d 6 3F 3F 00 01 00 FF
   0.1696 1  CB              Rx   d 8 54 00 80 00 00 02 70 00
   0.1698 1  CE              Rx   d 2 80 00
   0.1700 1  154             Rx   d 6 3F 3F 00 01 00 FF
   0.1759 1  047             Tx   d 7 44 00 00 00 00 5a af 
   0.1760 1  048             Tx   d 7 44 00 00 00 00 55 14 
   0.1762 1  041             Tx   d 6 44 fa 00 03 06 aa 
   0.1763 1  042             Tx   d 6 44 fa 00 03 06 a5 
   0.1787 1  CA              Rx   d 8 54 00 7F FE 00 00 10 00
   0.1788 1  CD              Rx   d 2 7E F4
   0.1790 1  153             Rx   d 6 3F 3F 00 01 00 FF
   0.1796 1  CB              Rx   d 8 54 00 80 00 00 02 10 00
   0.1798 1  CE              Rx   d 2 80 00
   0.1800 1  154             Rx   d 6 3F 3F 00 01 00 FF
   0.1856 1  047             Tx   d 7 84 00 00 00 00 5a 5f 
   0.1858 1  048             Tx   d 7 84 00 00 00 00 55 e4 
   0.1860 1  041             Tx   d 6 84 fa 00 03 06 aa 
   0.1861 1  042             Tx   d 6 84 fa 00 03 06 a5 
   0.1887 1  CA              Rx   d 8 54 00 7F FE 00 00 30 00
   0.1888 1  CD              Rx   d 2 7E F4
   0.1890 1  153             Rx   d 6 3F 3F 00 01 00 FF
   0.1896 1  CB              Rx   d 8 54 00 80 00 00 01 30 00
   0.1898 1  CE              Rx   d 2 80 00
   0.1900 1  154             Rx   d 6 3F 3F 00 01 00 FF
   0.1959 1  047             Tx   d 7 c4 00 00 00 00 5a 0f 
   0.1960 1  048             Tx   d 7 c4 00 00 00 00 55 b4 
   0.1962 1  041             Tx   d 6 c4 fa 00 03 06 aa 
   0.1963 1  042             Tx   d 6 c4 fa 00 03 06 a5 
   0.1987 1  CA              Rx   d 8 54 00 7F FE 00 00 50 00
   0.1988 1  CD              Rx   d 2 7E F4
   0.1990 1  153             Rx   d 6 3F 3F 00 01 00 FF
   0.1996 1  CB              Rx   d 8 54 00 80 00 00 02 50 00
   0.1998 1  CE              Rx   d 2 80 00
   0.2000 1  154             Rx   d 6 3F 3F 00 01 00 FF
   0.2060 1  047             Tx   d 7 04 00 00 00 00 5a ff 
   0.2062 1  048             Tx   d 7 04 00 00 00 00 55 44 
   0.2063 1  041             Tx   d 6 04 fa 00 03 06 aa 
   0.2064 1  042             Tx   d 6 04 fa 00 03 06 a5 
   0.2087 1  CA              Rx   d 8 54 00 7F FE 00 00 70 00
   0.2088 1  CD              Rx   d 2 7E F4
   0.2090 1  153             Rx   d 6 3F 3F 00 01 00 FF
   0.2097 1  CB              Rx   d 8 54 00 80 00 00 01 70 00
   0.2098 1  CE              Rx   d 2 80 00
   0.2100 1  154             Rx   d 6 3F 3F 00 01 00 FF
   0.2161 1  047             Tx   d 7 44 00 00 00 00 5a af 
   0.2164 1  048             Tx   d 7 44 00 00 00 00 55 14 
   0.2167 1  041             Tx   d 6 44 fa 00 03 06 aa 
   0.2168 1  042             Tx   d 6 44 fa 00 03 06 a5 
   0.2187 1  CA              Rx   d 8 54 00 7F FE 00 00 10 00
   0.2188 1  CD              Rx   d 2 7E F4
   0.2190 1  153             Rx   d 6 3F 3F 00 01 00 FF
   0.2196 1  CB              Rx   d 8 54 00 80 00 00 01 10 00
   0.2198 1  CE              Rx   d 2 80 00
   0.2200 1  154             Rx   d 6 3F 3F 00 01 00 FF
   0.2264 1  047             Tx   d 7 84 00 00 00 00 5a 5f 
   0.2266 1  048             Tx   d 7 84 00 00 00 00 55 e4 
   0.2267 1  041             Tx   d 6 84 fa 00 03 06 aa 
   0.2269 1  042             Tx   d 6 84 fa 00 03 06 a5 
   0.2286 1  CA              Rx   d 8 54 00 7F FE 00 00 30 00
   0.2288 1  CD              Rx   d 2 7E F4
   0.2290 1  153             Rx   d 6 3F 3F 00 01 00 FF
   0.2292 1  386             Rx   d 5 E3 E0 E0 48 00
   0.2296 1  CB              Rx   d 8 54 00 80 00 00 02 30 00
   0.2298 1  CE              Rx   d 2 80 00
   0.2300 1  154             Rx   d 6 3F 3F 00 01 00 FF
   0.2302 1  387             Rx   d 5 E3 E0 E0 48 00
   0.2366 1  047             Tx   d 7 c4 00 00 00 00 5a 0f 
   0.2368 1  048             Tx   d 7 c4 00 00 00 00 55 b4 
   0.2370 1  041             Tx   d 6 c4 fa 00 03 06 aa 
   0.2371 1  042             Tx   d 6 c4 fa 00 03 06 a5 
   0.2387 1  CA              Rx   d 8 54 00 7F FE 00 00 50 00
   0.2388 1  CD              Rx   d 2 7E F4
   0.2390 1  153             Rx   d 6 3F 3F 00 01 00 FF
   0.2397 1  CB              Rx   d 8 54 00 80 00 00 01 50 00
   0.2398 1  CE              Rx   d 2 80 00
   0.2400 1  154             Rx   d 6 3F 3F 00 01 00 FF
   0.2459 1  047             Tx   d 7 04 00 00 00 00 5a ff 
   0.2461 1  048             Tx   d 7 04 00 00 00 00 55 44 
   0.2463 1  041             Tx   d 6 04 fa 00 03 06 aa 
   0.2464 1  042             Tx   d 6 04 fa 00 03 06 a5 
   0.2487 1  CA              Rx   d 8 54 00 7F FE 00 01 70 00
   0.2488 1  CD              Rx   d 2 7E F4
   0.2490 1  153             Rx   d 6 3F 3F 00 01 00 FF
   0.2496 1  CB              Rx   d 8 54 00 80 00 00 01 70 00
   0.2498 1  CE              Rx   d 2 80 00
   0.2500 1  154             Rx   d 6 3F 3F 00 01 00 FF
   0.2558 1  047             Tx   d 7 44 00 00 00 00 5a af 
   0.2560 1  048             Tx   d 7 44 00 00 00 00 55 14 
   0.2561 1  041             Tx   d 6 44 fa 00 03 06 aa 
   0.2563 1  042             Tx   d 6 44 fa 00 03 06 a5 
   0.2586 1  CA              Rx   d 8 54 00 7F FE 00 00 10 00
   0.2588 1  CD              Rx   d 2 7E F4
   0.2590 1  153             Rx   d 6 3F 3F 00 01 00 FF
   0.2596 1  CB              Rx   d 8 54 00 80 00 00 01 10 00
   0.2598 1  CE              Rx   d 2 80 00
   0.2658 1  047             Tx   d 7 84 00 00 00 00 5a 5f 
   0.2600 1  154             Rx   d 6 3F 3F 00 01 00 FF
   0.2666 1  048             Tx   d 7 84 00 00 00 00 55 e4 
   0.2668 1  041             Tx   d 6 84 fa 00 03 06 aa 
   0.2669 1  042             Tx   d 6 84 fa 00 03 06 a5 
   0.2687 1  CA              Rx   d 8 54 00 7F FE 00 00 30 00
   0.2688 1  CD              Rx   d 2 7E F4
   0.2690 1  153             Rx   d 6 3F 3F 00 01 00 FF
   0.2696 1  CB              Rx   d 8 54 00 80 00 00 01 30 00
   0.2698 1  CE              Rx   d 2 80 00
   0.2700 1  154             Rx   d 6 3F 3F 00 01 00 FF
   0.2761 1  047             Tx   d 7 c4 00 00 00 00 5a 0f 
   0.2763 1  048             Tx   d 7 c4 00 00 00 00 55 b4 
   0.2765 1  041             Tx   d 6 c4 fa 00 03 06 aa 
   0.2766 1  042             Tx   d 6 c4 fa 00 03 06 a5 
   0.2787 1  CA              Rx   d 8 54 00 7F FE 00 01 50 00
   0.2788 1  CD              Rx   d 2 7E F4
   0.2790 1  153             Rx   d 6 3F 3F 00 01 00 FF
   0.2796 1  CB              Rx   d 8 54 00 80 00 00 01 50 00
   0.2798 1  CE              Rx   d 2 80 00
   0.2800 1  154             Rx   d 6 3F 3F 00 01 00 FF
   0.2857 1  047             Tx   d 7 04 00 00 00 00 5a ff 
   0.2859 1  048             Tx   d 7 04 00 00 00 00 55 44 
   0.2860 1  041             Tx   d 6 04 fa 00 03 06 aa 
   0.2862 1  042             Tx   d 6 04 fa 00 03 06 a5 
   0.2887 1  CA              Rx   d 8 54 00 7F FE 00 01 70 00
   0.2888 1  CD              Rx   d 2 7E F4
   0.2890 1  153             Rx   d 6 3F 3F 00 01 00 FF
   0.2897 1  CB              Rx   d 8 54 00 80 00 00 02 70 00
   0.2898 1  CE              Rx   d 2 80 00
   0.2900 1  154             Rx   d 6 3F 3F 00 01 00 FF
   0.2959 1  047             Tx   d 7 44 00 00 00 00 5a af 
   0.2962 1  048             Tx   d 7 44 00 00 00 00 55 14 
   0.2967 1  041             Tx   d 6 44 fa 00 03 06 aa 
   0.2970 1  042             Tx   d 6 44 fa 00 03 06 a5 
   0.2987 1  CA              Rx   d 8 54 00 7F FE 00 01 10 00
   0.2988 1  CD              Rx   d 2 7E F4
   0.2990 1  153             Rx   d 6 3F 3F 00 01 00 FF
   0.2996 1  CB              Rx   d 8 54 00 80 00 00 01 10 00
   0.2998 1  CE              Rx   d 2 80 00
   0.3000 1  154             Rx   d 6 3F 3F 00 01 00 FF
   0.3059 1  047             Tx   d 7 84 00 00 00 00 5a 5f 
   0.3061 1  048             Tx   d 7 84 00 00 00 00 55 e4 
   0.3063 1  041             Tx   d 6 84 fa 00 03 06 aa 
   0.3064 1  042             Tx   d 6 84 fa 00 03 06 a5 
   0.3086 1  CA              Rx   d 8 54 00 7F FE 00 01 30 00
   0.3088 1  CD              Rx   d 2 7E F4
   0.3090 1  153             Rx   d 6 3F 3F 00 01 00 FF
   0.3096 1  CB              Rx   d 8 54 00 80 00 00 01 30 00
   0.3098 1  CE              Rx   d 2 80 00
   0.3100 1  154             Rx   d 6 3F 3F 00 01 00 FF
   0.3165 1  047             Tx   d 7 c4 00 00 00 00 5a 0f 
   0.3166 1  048             Tx   d 7 c4 00 00 00 00 55 b4 
   0.3168 1  041             Tx   d 6 c4 fa 00 03 06 aa 
   0.3169 1  042             Tx   d 6 c4 fa 00 03 06 a5 
   0.3187 1  CA              Rx   d 8 54 00 7F FE 00 00 50 00
   0.3188 1  CD              Rx   d 2 7E F4
   0.3190 1  153             Rx   d 6 3F 3F 00 01 00 FF
   0.3197 1  CB              Rx   d 8 54 00 80 00 00 01 50 00
   0.3198 1  CE              Rx   d 2 80 00
   0.3200 1  154             Rx   d 6 3F 3F 00 01 00 FF
   0.3264 1  047             Tx   d 7 04 00 00 00 00 5a ff 
   0.3266 1  048             Tx   d 7 04 00 00 00 00 55 44 
   0.3267 1  041             Tx   d 6 04 fa 00 03 06 aa 
   0.3269 1  042             Tx   d 6 04 fa 00 03 06 a5 
   0.3287 1  CA              Rx   d 8 54 00 7F FE 00 01 70 00
   0.3288 1  CD              Rx   d 2 7E F4
   0.3290 1  153             Rx   d 6 3F 3F 00 01 00 FF
   0.3292 1  386             Rx   d 5 EB EB E8 49 00
   0.3294 1  684             Rx   d 8 00 00 00 00 00 00 00 00
   0.3297 1  CB              Rx   d 8 54 00 80 00 00 02 70 00
   0.3298 1  CE              Rx   d 2 80 00
   0.3300 1  154             Rx   d 6 3F 3F 00 01 00 FF
   0.3302 1  387             Rx   d 5 EB EB E8 49 00
   0.3304 1  685             Rx   d 8 00 00 00 00 00 00 00 00
   0.3369 1  047             Tx   d 7 44 00 00 00 00 5a af 
   0.3371 1  048             Tx   d 7 44 00 00 00 00 55 14 
   0.3372 1  041             Tx   d 6 44 fa 00 03 06 aa 
   0.3373 1  042             Tx   d 6 44 fa 00 03 06 a5 
   0.3386 1  CA              Rx   d 8 54 00 7F FE 00 00 10 00
   0.3388 1  CD              Rx   d 2 7E F4
   0.3390 1  153             Rx   d 6 3F 3F 00 01 00 FF
   0.3396 1  CB              Rx   d 8 54 00 80 00 00 02 10 00
   0.3398 1  CE              Rx   d 2 80 00
   0.3400 1  154             Rx   d 6 3F 3F 00 01 00 FF
   0.3465 1  047             Tx   d 7 84 00 00 00 00 5a 5f 
   0.3467 1  048             Tx   d 7 84 00 00 00 00 55 e4 
   0.3469 1  041             Tx   d 6 84 fa 00 03 06 aa 
   0.3470 1  042             Tx   d 6 84 fa 00 03 06 a5 
   0.3487 1  CA              Rx   d 8 54 00 7F FE 00 01 30 00
   0.3488 1  CD              Rx   d 2 7E F4
   0.3490 1  153             Rx   d 6 3F 3F 00 01 00 FF
   0.3496 1  CB              Rx   d 8 54 00 80 00 00 01 30 00
   0.3498 1  CE              Rx   d 2 80 00
   0.3500 1  154             Rx   d 6 3F 3F 00 01 00 FF
   0.3560 1  047             Tx   d 7 c4 00 00 00 00 5a 0f 
   0.3562 1  048             Tx   d 7 c4 00 00 00 00 55 b4 
   0.3563 1  041             Tx   d 6 c4 fa 00 03 06 aa 
   0.3564 1  042             Tx   d 6 c4 fa 00 03 06 a5 
   0.3587 1  CA              Rx   d 8 54 00 7F FE 00 01 50 00
   0.3588 1  CD              Rx   d 2 7E F4
   0.3590 1  153             Rx   d 6 3F 3F 00 01 00 FF
   0.3596 1  CB              Rx   d 8 54 00 80 00 00 02 50 00
   0.3598 1  CE              Rx   d 2 80 00
   0.3600 1  154             Rx   d 6 3F 3F 00 01 00 FF
   0.3663 1  047             Tx   d 7 04 00 00 00 00 5a ff 
   0.3665 1  048             Tx   d 7 04 00 00 00 00 55 44 
   0.3666 1  041             Tx   d 6 04 fa 00 03 06 aa 
   0.3668 1  042             Tx   d 6 04 fa 00 03 06 a5 
   0.3687 1  CA              Rx   d 8 54 00 7F FE 00 01 70 00
   0.3688 1  CD              Rx   d 2 7E F4
   0.3690 1  153             Rx   d 6 3F 3F 00 01 00 FF
   0.3697 1  CB              Rx   d 8 54 00 80 00 00 01 70 00
   0.3698 1  CE              Rx   d 2 80 00
   0.3700 1  154             Rx   d 6 3F 3F 00 01 00 FF
   0.3757 1  047             Tx   d 7 44 00 00 00 00 5a af 
   0.3759 1  048             Tx   d 7 44 00 00 00 00 55 14 
   0.3762 1  041             Tx   d 6 44 fa 00 03 06 aa 
   0.3765 1  042             Tx   d 6 44 fa 00 03 06 a5 
   0.3787 1  CA              Rx   d 8 54 00 7F FE 00 00 10 00
   0.3788 1  CD              Rx   d 2 7E F4
   0.3790 1  153             Rx   d 6 3F 3F 00 01 00 FF
   0.3796 1  CB              Rx   d 8 54 00 80 00 00 01 10 00
   0.3798 1  CE              Rx   d 2 80 00
   0.3800 1  154             Rx   d 6 3F 3F 00 01 00 FF
   0.3860 1  047             Tx   d 7 84 00 00 00 00 5a 5f 
   0.3862 1  048             Tx   d 7 84 00 00 00 00 55 e4 
   0.3863 1  041             Tx   d 6 84 fa 00 03 06 aa 
   0.3865 1  042             Tx   d 6 84 fa 00 03 06 a5 
   0.3886 1  CA              Rx   d 8 54 00 7F FE 00 00 30 00
   0.3888 1  CD              Rx   d 2 7E F4
   0.3890 1  153             Rx   d 6 3F 3F 00 01 00 FF
   0.3896 1  CB              Rx   d 8 54 00 80 00 00 02 30 00
   0.3898 1  CE              Rx   d 2 80 00
   0.3900 1  154             Rx   d 6 3F 3F 00 01 00 FF
   0.3965 1  047             Tx   d 7 c4 00 00 00 00 5a 0f 
   0.3967 1  048             Tx   d 7 c4 00 00 00 00 55 b4 
   0.3969 1  041             Tx   d 6 c4 fa 00 03 06 aa 
   0.3970 1  042             Tx   d 6 c4 fa 00 03 06 a5 
   0.3987 1  CA              Rx   d 8 54 00 7F FE 00 00 50 00
   0.3988 1  CD              Rx   d 2 7E F4
   0.3990 1  153             Rx   d 6 3F 3F 00 01 00 FF
   0.3997 1  CB              Rx   d 8 54 00 80 00 00 01 50 00
   0.3998 1  CE              Rx   d 2 80 00
   0.4000 1  154             Rx   d 6 3F 3F 00 01 00 FF
   0.4060 1  047             Tx   d 7 04 00 00 00 00 5a ff 
   0.4062 1  048             Tx   d 7 04 00 00 00 00 55 44 
   0.4064 1  041             Tx   d 6 04 fa 00 03 06 aa 
   0.4065 1  042             Tx   d 6 04 fa 00 03 06 a5 
   0.4087 1  CA              Rx   d 8 54 00 7F FE 00 00 70 00
   0.4088 1  CD              Rx   d 2 7E F4
   0.4090 1  153             Rx   d 6 3F 3F 00 01 00 FF
   0.4096 1  CB              Rx   d 8 54 00 80 00 00 01 70 00
   0.4098 1  CE              Rx   d 2 80 00
   0.4100 1  154             Rx   d 6 3F 3F 00 01 00 FF
   0.4162 1  047             Tx   d 7 44 00 00 00 00 5a af 
   0.4164 1  048             Tx   d 7 44 00 00 00 00 55 14 
   0.4166 1  041             Tx   d 6 44 fa 00 03 06 aa 
   0.4167 1  042             Tx   d 6 44 fa 00 03 06 a5 
   0.4186 1  CA              Rx   d 8 54 00 7F FE 00 00 10 00
   0.4188 1  CD              Rx   d 2 7E F4
   0.4190 1  153             Rx   d 6 3F 3F 00 01 00 FF
   0.4196 1  CB              Rx   d 8 54 00 80 00 00 02 10 00
   0.4198 1  CE              Rx   d 2 80 00
   0.4200 1  154             Rx   d 6 3F 3F 00 01 00 FF
   0.4259 1  047             Tx   d 7 84 00 00 00 00 5a 5f 
   0.4261 1  048             Tx   d 7 84 00 00 00 00 55 e4 
   0.4263 1  041             Tx   d 6 84 fa 00 03 06 aa 
   0.4264 1  042             Tx   d 6 84 fa 00 03 06 a5 
   0.4287 1  CA              Rx   d 8 54 00 7F FE 00 00 30 00
   0.4288 1  CD              Rx   d 2 7E F4
   0.4290 1  153             Rx   d 6 3F 3F 00 01 00 FF
   0.4292 1  386             Rx   d 5 F3 F2 F0 4A 00
   0.4296 1  CB              Rx   d 8 54 00 80 00 00 02 30 00
   0.4298 1  CE              Rx   d 2 80 00
   0.4300 1  154             Rx   d 6 3F 3F 00 01 00 FF
   0.4302 1  387             Rx   d 5 F3 F2 F0 4A 00
   0.4363 1  047             Tx   d 7 c4 00 00 00 00 5a 0f 
   0.4367 1  048             Tx   d 7 c4 00 00 00 00 55 b4 
   0.4368 1  041             Tx   d 6 c4 fa 00 03 06 aa 
   0.4372 1  042             Tx   d 6 c4 fa 00 03 06 a5 
   0.4387 1  CA              Rx   d 8 54 00 7F FE 00 00 50 00
   0.4388 1  CD              Rx   d 2 7E F4
   0.4390 1  153             Rx   d 6 3F 3F 00 01 00 FF
   0.4396 1  CB              Rx   d 8 54 00 80 00 00 02 50 00
   0.4398 1  CE              Rx   d 2 80 00
