date Sat Sep 09 02:02:39 AM 2018
base hex  timestamps absolute
internal events logged
Begin Triggerblock Sat Sep 09 02:02:39 AM 2018
   0.0005 Start of measurement
   0.0007 Start of logging...
   0.0030 1  CA              Rx   d 8 54 00 7F FE 01 94 30 00
 1537002159.1592 1  CD              Rx   d 2 7E F4
 1537002159.1594 1  153             Rx   d 6 3F 3F 00 01 00 FF
 1537002159.1600 1  CB              Rx   d 8 54 00 80 00 01 94 30 00
 1537002159.1602 1  CE              Rx   d 2 80 00
 1537002159.1604 1  154             Rx   d 6 3F 3F 00 01 00 FF
 1537002159.1691 1  CA              Rx   d 8 54 00 7F FE 01 93 50 00
 1537002159.1692 1  CD              Rx   d 2 7E F4
 1537002159.1694 1  153             Rx   d 6 3F 3F 00 01 00 FF
 1537002159.1701 1  CB              Rx   d 8 54 00 80 00 01 93 50 00
 1537002159.1702 1  CE              Rx   d 2 80 00
 1537002159.1704 1  154             Rx   d 6 3F 3F 00 01 00 FF
 1537002159.1791 1  CA              Rx   d 8 54 00 7F FE 01 92 70 00
 1537002159.1792 1  CD              Rx   d 2 7E F4
 1537002159.1794 1  153             Rx   d 6 3F 3F 00 01 00 FF
 1537002159.1800 1  CB              Rx   d 8 54 00 80 00 01 92 70 00
 1537002159.1802 1  CE              Rx   d 2 80 00
 1537002159.1804 1  154             Rx   d 6 3F 3F 00 01 00 FF
   0.0071 1  CA              Rx   d 8 54 00 7F FE 01 91 10 00
   0.0072 1  CD              Rx   d 2 7E F4
   0.0074 1  153             Rx   d 6 3F 3F 00 01 00 FF
   0.0081 1  CB              Rx   d 8 54 00 80 00 01 91 10 00
   0.0082 1  CE              Rx   d 2 80 00
   0.0085 1  154             Rx   d 6 3F 3F 00 01 00 FF
   0.0171 1  CA              Rx   d 8 54 00 7F FE 01 90 30 00
   0.0172 1  CD              Rx   d 2 7E F4
   0.0175 1  153             Rx   d 6 3F 3F 00 01 00 FF
   0.0181 1  CB              Rx   d 8 54 00 80 00 01 91 30 00
   0.0182 1  CE              Rx   d 2 80 00
   0.0184 1  154             Rx   d 6 3F 3F 00 01 00 FF
   0.0271 1  CA              Rx   d 8 54 00 7F FE 01 90 50 00
   0.0272 1  CD              Rx   d 2 7E F4
   0.0274 1  153             Rx   d 6 3F 3F 00 01 00 FF
   0.0281 1  CB              Rx   d 8 54 00 80 00 01 90 50 00
   0.0283 1  CE              Rx   d 2 80 00
   0.0284 1  154             Rx   d 6 3F 3F 00 01 00 FF
   0.0371 1  CA              Rx   d 8 54 00 7F FE 01 8F 70 00
   0.0372 1  CD              Rx   d 2 7E F4
   0.0374 1  153             Rx   d 6 3F 3F 00 01 00 FF
   0.0381 1  CB              Rx   d 8 54 00 80 00 01 8F 70 00
   0.0382 1  CE              Rx   d 2 80 00
   0.0385 1  154             Rx   d 6 3F 3F 00 01 00 FF
   0.0471 1  CA              Rx   d 8 54 00 7F FE 01 8E 10 00
   0.0472 1  CD              Rx   d 2 7E F4
   0.0475 1  153             Rx   d 6 3F 3F 00 01 00 FF
   0.0481 1  CB              Rx   d 8 54 00 80 00 01 8E 10 00
   0.0482 1  CE              Rx   d 2 80 00
   0.0484 1  154             Rx   d 6 3F 3F 00 01 00 FF
   0.0571 1  CA              Rx   d 8 54 00 7F FE 01 8D 30 00
   0.0572 1  CD              Rx   d 2 7E F4
   0.0574 1  153             Rx   d 6 3F 3F 00 01 00 FF
   0.0576 1  386             Rx   d 5 32 33 32 52 5E
   0.0581 1  CB              Rx   d 8 54 00 80 00 01 8D 30 00
   0.0582 1  CE              Rx   d 2 80 00
   0.0584 1  154             Rx   d 6 3F 3F 00 01 00 FF
   0.0586 1  387             Rx   d 5 32 33 32 52 DE
   0.0673 1  CD              Rx   d 2 7E F4
   0.0674 1  153             Rx   d 6 3F 3F 00 01 00 FF
   0.0681 1  CB              Rx   d 8 54 00 80 00 01 8D 50 00
   0.0682 1  CE              Rx   d 2 80 00
   0.0684 1  154             Rx   d 6 3F 3F 00 01 00 FF
   0.0771 1  CA              Rx   d 8 54 00 7F FE 01 8C 70 00
   0.0772 1  CD              Rx   d 2 7E F4
   0.0774 1  153             Rx   d 6 3F 3F 00 01 00 FF
   0.0781 1  CB              Rx   d 8 54 00 80 00 01 8C 70 00
   0.0782 1  CE              Rx   d 2 80 00
   0.0784 1  154             Rx   d 6 3F 3F 00 01 00 FF
   0.0871 1  CA              Rx   d 8 54 00 7F FE 01 8B 10 00
   0.0872 1  CD              Rx   d 2 7E F4
   0.0874 1  153             Rx   d 6 3F 3F 00 01 00 FF
   0.0881 1  CB              Rx   d 8 54 00 80 00 01 8B 10 00
   0.0882 1  CE              Rx   d 2 80 00
   0.0885 1  154             Rx   d 6 3F 3F 00 01 00 FF
   0.1001 1  047             Tx   d 7 04 00 00 00 00 5a ff 
   0.1003 1  048             Tx   d 7 04 00 00 00 00 55 44 
   0.1004 1  041             Tx   d 6 04 fa 00 03 06 aa 
   0.1006 1  042             Tx   d 6 04 fa 00 03 06 a5 
   0.0971 1  CA              Rx   d 8 54 00 7F FE 01 8A 30 00
   0.0972 1  CD              Rx   d 2 7E F4
   0.0975 1  153             Rx   d 6 3F 3F 00 01 00 FF
   0.0981 1  CB              Rx   d 8 54 00 80 00 01 8A 30 00
   0.0983 1  CE              Rx   d 2 80 00
   0.0985 1  154             Rx   d 6 3F 3F 00 01 00 FF
   0.1094 1  047             Tx   d 7 44 00 00 00 00 5a af 
   0.1096 1  048             Tx   d 7 44 00 00 00 00 55 14 
   0.1097 1  041             Tx   d 6 44 fa 00 03 06 aa 
   0.1099 1  042             Tx   d 6 44 fa 00 03 06 a5 
   0.1071 1  CA              Rx   d 8 54 00 7F FE 01 89 50 00
   0.1072 1  CD              Rx   d 2 7E F4
   0.1074 1  153             Rx   d 6 3F 3F 00 01 00 FF
   0.1082 1  CB              Rx   d 8 54 00 80 00 01 89 50 00
   0.1083 1  CE              Rx   d 2 80 00
   0.1085 1  154             Rx   d 6 3F 3F 00 01 00 FF
   0.1187 1  047             Tx   d 7 84 00 00 00 00 5a 5f 
   0.1189 1  048             Tx   d 7 84 00 00 00 00 55 e4 
   0.1190 1  041             Tx   d 6 84 fa 00 03 06 aa 
   0.1192 1  042             Tx   d 6 84 fa 00 03 06 a5 
   0.1171 1  CA              Rx   d 8 54 00 7F FE 01 89 70 00
   0.1173 1  CD              Rx   d 2 7E F4
   0.1175 1  153             Rx   d 6 3F 3F 00 01 00 FF
   0.1182 1  CB              Rx   d 8 54 00 80 00 01 89 70 00
   0.1183 1  CE              Rx   d 2 80 00
   0.1185 1  154             Rx   d 6 3F 3F 00 01 00 FF
   0.1286 1  047             Tx   d 7 c4 00 00 00 00 5a 0f 
   0.1290 1  048             Tx   d 7 c4 00 00 00 00 55 b4 
   0.1292 1  041             Tx   d 6 c4 fa 00 03 06 aa 
   0.1293 1  042             Tx   d 6 c4 fa 00 03 06 a5 
   0.1271 1  CA              Rx   d 8 54 00 7F FE 01 88 10 00
   0.1272 1  CD              Rx   d 2 7E F4
   0.1275 1  153             Rx   d 6 3F 3F 00 01 00 FF
   0.1281 1  CB              Rx   d 8 54 00 80 00 01 88 10 00
   0.1283 1  CE              Rx   d 2 80 00
   0.1285 1  154             Rx   d 6 3F 3F 00 01 00 FF
   0.1381 1  047             Tx   d 7 04 00 00 00 00 5a ff 
   0.1384 1  048             Tx   d 7 04 00 00 00 00 55 44 
   0.1385 1  041             Tx   d 6 04 fa 00 03 06 aa 
   0.1387 1  042             Tx   d 6 04 fa 00 03 06 a5 
   0.1371 1  CA              Rx   d 8 54 00 7F FE 01 87 30 00
   0.1373 1  CD              Rx   d 2 7E F4
   0.1374 1  153             Rx   d 6 3F 3F 00 01 00 FF
   0.1382 1  CB              Rx   d 8 54 00 80 00 01 87 30 00
   0.1383 1  CE              Rx   d 2 80 00
   0.1385 1  154             Rx   d 6 3F 3F 00 01 00 FF
   0.1483 1  047             Tx   d 7 44 00 00 00 00 5a af 
   0.1485 1  048             Tx   d 7 44 00 00 00 00 55 14 
   0.1487 1  041             Tx   d 6 44 fa 00 03 06 aa 
   0.1488 1  042             Tx   d 6 44 fa 00 03 06 a5 
   0.1471 1  CA              Rx   d 8 54 00 7F FE 01 86 50 00
   0.1473 1  CD              Rx   d 2 7E F4
   0.1475 1  153             Rx   d 6 3F 3F 00 01 00 FF
   0.1481 1  CB              Rx   d 8 54 00 80 00 01 86 50 00
   0.1483 1  CE              Rx   d 2 80 00
   0.1485 1  154             Rx   d 6 3F 3F 00 01 00 FF
   0.1584 1  047             Tx   d 7 84 00 00 00 00 5a 5f 
   0.1586 1  048             Tx   d 7 84 00 00 00 00 55 e4 
   0.1587 1  041             Tx   d 6 84 fa 00 03 06 aa 
   0.1589 1  042             Tx   d 6 84 fa 00 03 06 a5 
   0.1572 1  CA              Rx   d 8 54 00 7F FE 01 85 70 00
   0.1573 1  CD              Rx   d 2 7E F4
   0.1574 1  153             Rx   d 6 3F 3F 00 01 00 FF
   0.1577 1  386             Rx   d 5 3A 3B 3A 53 45
   0.1579 1  684             Rx   d 8 00 00 00 00 00 00 00 00
   0.1582 1  CB              Rx   d 8 54 00 80 00 01 86 70 00
   0.1583 1  CE              Rx   d 2 80 00
   0.1585 1  154             Rx   d 6 3F 3F 00 01 00 FF
   0.1587 1  387             Rx   d 5 3A 3B 3A 53 D2
   0.1589 1  685             Rx   d 8 00 00 00 00 00 00 00 00
   0.1695 1  047             Tx   d 7 c4 00 00 00 00 5a 0f 
   0.1699 1  048             Tx   d 7 c4 00 00 00 00 55 b4 
   0.1701 1  041             Tx   d 6 c4 fa 00 03 06 aa 
   0.1702 1  042             Tx   d 6 c4 fa 00 03 06 a5 
   0.1671 1  CA              Rx   d 8 54 00 7F FE 01 85 10 00
   0.1673 1  CD              Rx   d 2 7E F4
   0.1675 1  153             Rx   d 6 3F 3F 00 01 00 FF
   0.1682 1  CB              Rx   d 8 54 00 80 00 01 85 10 00
   0.1683 1  CE              Rx   d 2 80 00
   0.1685 1  154             Rx   d 6 3F 3F 00 01 00 FF
   0.1791 1  047             Tx   d 7 04 00 00 00 00 5a ff 
   0.1793 1  048             Tx   d 7 04 00 00 00 00 55 44 
   0.1795 1  041             Tx   d 6 04 fa 00 03 06 aa 
   0.1796 1  042             Tx   d 6 04 fa 00 03 06 a5 
   0.1771 1  CA              Rx   d 8 54 00 7F FE 01 84 30 00
   0.1772 1  CD              Rx   d 2 7E F4
   0.1775 1  153             Rx   d 6 3F 3F 00 01 00 FF
   0.1781 1  CB              Rx   d 8 54 00 80 00 01 84 30 00
   0.1783 1  CE              Rx   d 2 80 00
   0.1785 1  154             Rx   d 6 3F 3F 00 01 00 FF
   0.1885 1  047             Tx   d 7 44 00 00 00 00 5a af 
   0.1887 1  048             Tx   d 7 44 00 00 00 00 55 14 
   0.1888 1  041             Tx   d 6 44 fa 00 03 06 aa 
   0.1890 1  042             Tx   d 6 44 fa 00 03 06 a5 
   0.1871 1  CA              Rx   d 8 54 00 7F FE 01 83 50 00
   0.1873 1  CD              Rx   d 2 7E F4
   0.1874 1  153             Rx   d 6 3F 3F 00 01 00 FF
   0.1882 1  CB              Rx   d 8 54 00 80 00 01 83 50 00
   0.1883 1  CE              Rx   d 2 80 00
   0.1885 1  154             Rx   d 6 3F 3F 00 01 00 FF
   0.1979 1  047             Tx   d 7 84 00 00 00 00 5a 5f 
   0.1981 1  048             Tx   d 7 84 00 00 00 00 55 e4 
   0.1983 1  041             Tx   d 6 84 fa 00 03 06 aa 
   0.1985 1  042             Tx   d 6 84 fa 00 03 06 a5 
   0.1971 1  CA              Rx   d 8 54 00 7F FE 01 82 70 00
   0.1973 1  CD              Rx   d 2 7E F4
   0.1975 1  153             Rx   d 6 3F 3F 00 01 00 FF
   0.1982 1  CB              Rx   d 8 54 00 80 00 01 82 70 00
   0.2084 1  047             Tx   d 7 c4 00 00 00 00 5a 0f 
   0.1983 1  CE              Rx   d 2 80 00
   0.1985 1  154             Rx   d 6 3F 3F 00 01 00 FF
   0.2094 1  048             Tx   d 7 c4 00 00 00 00 55 b4 
   0.2096 1  041             Tx   d 6 c4 fa 00 03 06 aa 
   0.2098 1  042             Tx   d 6 c4 fa 00 03 06 a5 
   0.2071 1  CA              Rx   d 8 54 00 7F FE 01 81 10 00
   0.2072 1  CD              Rx   d 2 7E F4
   0.2075 1  153             Rx   d 6 3F 3F 00 01 00 FF
   0.2081 1  CB              Rx   d 8 54 00 80 00 01 82 10 00
   0.2083 1  CE              Rx   d 2 80 00
   0.2085 1  154             Rx   d 6 3F 3F 00 01 00 FF
   0.2186 1  047             Tx   d 7 04 00 00 00 00 5a ff 
   0.2188 1  048             Tx   d 7 04 00 00 00 00 55 44 
   0.2189 1  041             Tx   d 6 04 fa 00 03 06 aa 
   0.2191 1  042             Tx   d 6 04 fa 00 03 06 a5 
   0.2171 1  CA              Rx   d 8 54 00 7F FE 01 81 30 00
   0.2173 1  CD              Rx   d 2 7E F4
   0.2174 1  153             Rx   d 6 3F 3F 00 01 00 FF
   0.2182 1  CB              Rx   d 8 54 00 80 00 01 81 30 00
   0.2183 1  CE              Rx   d 2 80 00
   0.2185 1  154             Rx   d 6 3F 3F 00 01 00 FF
   0.2288 1  047             Tx   d 7 44 00 00 00 00 5a af 
   0.2290 1  048             Tx   d 7 44 00 00 00 00 55 14 
   0.2292 1  041             Tx   d 6 44 fa 00 03 06 aa 
   0.2293 1  042             Tx   d 6 44 fa 00 03 06 a5 
   0.2271 1  CA              Rx   d 8 54 00 7F FE 01 80 50 00
   0.2273 1  CD              Rx   d 2 7E F4
   0.2275 1  153             Rx   d 6 3F 3F 00 01 00 FF
   0.2281 1  CB              Rx   d 8 54 00 80 00 01 80 50 00
   0.2283 1  CE              Rx   d 2 80 00
   0.2285 1  154             Rx   d 6 3F 3F 00 01 00 FF
   0.2387 1  047             Tx   d 7 84 00 00 00 00 5a 5f 
   0.2391 1  048             Tx   d 7 84 00 00 00 00 55 e4 
   0.2393 1  041             Tx   d 6 84 fa 00 03 06 aa 
   0.2395 1  042             Tx   d 6 84 fa 00 03 06 a5 
   0.2371 1  CA              Rx   d 8 54 00 7F FE 01 7F 70 00
   0.2372 1  CD              Rx   d 2 7E F4
   0.2374 1  153             Rx   d 6 3F 3F 00 01 00 FF
   0.2382 1  CB              Rx   d 8 54 00 80 00 01 7F 70 00
   0.2383 1  CE              Rx   d 2 80 00
   0.2385 1  154             Rx   d 6 3F 3F 00 01 00 FF
   0.2486 1  047             Tx   d 7 c4 00 00 00 00 5a 0f 
   0.2490 1  048             Tx   d 7 c4 00 00 00 00 55 b4 
   0.2492 1  041             Tx   d 6 c4 fa 00 03 06 aa 
   0.2493 1  042             Tx   d 6 c4 fa 00 03 06 a5 
   0.2471 1  CA              Rx   d 8 54 00 7F FE 01 7E 10 00
   0.2473 1  CD              Rx   d 2 7E F4
   0.2475 1  153             Rx   d 6 3F 3F 00 01 00 FF
   0.2482 1  CB              Rx   d 8 54 00 80 00 01 7F 10 00
   0.2483 1  CE              Rx   d 2 80 00
   0.2485 1  154             Rx   d 6 3F 3F 00 01 00 FF
   0.2589 1  047             Tx   d 7 04 00 00 00 00 5a ff 
   0.2592 1  048             Tx   d 7 04 00 00 00 00 55 44 
   0.2593 1  041             Tx   d 6 04 fa 00 03 06 aa 
   0.2595 1  042             Tx   d 6 04 fa 00 03 06 a5 
   0.2571 1  CA              Rx   d 8 54 00 7F FE 01 7E 30 00
   0.2572 1  CD              Rx   d 2 7E F4
   0.2575 1  153             Rx   d 6 3F 3F 00 01 00 FF
   0.2576 1  386             Rx   d 5 42 43 42 40 30
   0.2581 1  CB              Rx   d 8 54 00 80 00 01 7E 30 00
   0.2583 1  CE              Rx   d 2 80 00
   0.2585 1  154             Rx   d 6 3F 3F 00 01 00 FF
   0.2587 1  387             Rx   d 5 42 43 42 40 30
   0.2684 1  047             Tx   d 7 44 00 00 00 00 5a af 
   0.2686 1  048             Tx   d 7 44 00 00 00 00 55 14 
   0.2688 1  041             Tx   d 6 44 fa 00 03 06 aa 
   0.2689 1  042             Tx   d 6 44 fa 00 03 06 a5 
   0.2671 1  CA              Rx   d 8 54 00 7F FE 01 7D 50 00
   0.2672 1  CD              Rx   d 2 7E F4
   0.2674 1  153             Rx   d 6 3F 3F 00 01 00 FF
   0.2682 1  CB              Rx   d 8 54 00 80 00 01 7D 50 00
   0.2683 1  CE              Rx   d 2 80 00
   0.2685 1  154             Rx   d 6 3F 3F 00 01 00 FF
   0.2791 1  047             Tx   d 7 84 00 00 00 00 5a 5f 
   0.2796 1  048             Tx   d 7 84 00 00 00 00 55 e4 
   0.2798 1  041             Tx   d 6 84 fa 00 03 06 aa 
   0.2799 1  042             Tx   d 6 84 fa 00 03 06 a5 
   0.2771 1  CA              Rx   d 8 54 00 7F FE 01 7C 70 00
   0.2773 1  CD              Rx   d 2 7E F4
   0.2775 1  153             Rx   d 6 3F 3F 00 01 00 FF
   0.2782 1  CB              Rx   d 8 54 00 80 00 01 7C 70 00
   0.2783 1  CE              Rx   d 2 80 00
   0.2785 1  154             Rx   d 6 3F 3F 00 01 00 FF
   0.2894 1  047             Tx   d 7 c4 00 00 00 00 5a 0f 
   0.2896 1  048             Tx   d 7 c4 00 00 00 00 55 b4 
   0.2898 1  041             Tx   d 6 c4 fa 00 03 06 aa 
   0.2900 1  042             Tx   d 6 c4 fa 00 03 06 a5 
   0.2871 1  CA              Rx   d 8 54 00 7F FE 01 7B 10 00
   0.2872 1  CD              Rx   d 2 7E F4
   0.2875 1  153             Rx   d 6 3F 3F 00 01 00 FF
   0.2881 1  CB              Rx   d 8 54 00 80 00 01 7B 10 00
   0.2883 1  CE              Rx   d 2 80 00
   0.2885 1  154             Rx   d 6 3F 3F 00 01 00 FF
   0.2990 1  047             Tx   d 7 04 00 00 00 00 5a ff 
   0.2994 1  048             Tx   d 7 04 00 00 00 00 55 44 
   0.2995 1  041             Tx   d 6 04 fa 00 03 06 aa 
   0.2997 1  042             Tx   d 6 04 fa 00 03 06 a5 
   0.2971 1  CA              Rx   d 8 54 00 7F FE 01 7A 30 00
   0.2973 1  CD              Rx   d 2 7E F4
   0.2974 1  153             Rx   d 6 3F 3F 00 01 00 FF
   0.2982 1  CB              Rx   d 8 54 00 80 00 01 7B 30 00
   0.2983 1  CE              Rx   d 2 80 00
   0.2985 1  154             Rx   d 6 3F 3F 00 01 00 FF
   0.3086 1  047             Tx   d 7 44 00 00 00 00 5a af 
   0.3089 1  048             Tx   d 7 44 00 00 00 00 55 14 
   0.3093 1  041             Tx   d 6 44 fa 00 03 06 aa 
   0.3094 1  042             Tx   d 6 44 fa 00 03 06 a5 
   0.3071 1  CA              Rx   d 8 54 00 7F FE 01 7A 50 00
   0.3073 1  CD              Rx   d 2 7E F4
   0.3075 1  153             Rx   d 6 3F 3F 00 01 00 FF
   0.3081 1  CB              Rx   d 8 54 00 80 00 01 7A 50 00
   0.3083 1  CE              Rx   d 2 80 00
   0.3085 1  154             Rx   d 6 3F 3F 00 01 00 FF
   0.3188 1  047             Tx   d 7 84 00 00 00 00 5a 5f 
   0.3191 1  048             Tx   d 7 84 00 00 00 00 55 e4 
   0.3193 1  041             Tx   d 6 84 fa 00 03 06 aa 
   0.3194 1  042             Tx   d 6 84 fa 00 03 06 a5 
   0.3171 1  CA              Rx   d 8 54 00 7F FE 01 79 70 00
   0.3172 1  CD              Rx   d 2 7E F4
   0.3174 1  153             Rx   d 6 3F 3F 00 01 00 FF
   0.3181 1  CB              Rx   d 8 54 00 80 00 01 79 70 00
   0.3183 1  CE              Rx   d 2 80 00
   0.3185 1  154             Rx   d 6 3F 3F 00 01 00 FF
   0.3293 1  047             Tx   d 7 c4 00 00 00 00 5a 0f 
   0.3296 1  048             Tx   d 7 c4 00 00 00 00 55 b4 
   0.3297 1  041             Tx   d 6 c4 fa 00 03 06 aa 
   0.3299 1  042             Tx   d 6 c4 fa 00 03 06 a5 
   0.3271 1  CA              Rx   d 8 54 00 7F FE 01 78 10 00
   0.3273 1  CD              Rx   d 2 7E F4
   0.3275 1  153             Rx   d 6 3F 3F 00 01 00 FF
   0.3282 1  CB              Rx   d 8 54 00 80 00 01 78 10 00
   0.3283 1  CE              Rx   d 2 80 00
   0.3285 1  154             Rx   d 6 3F 3F 00 01 00 FF
   0.3389 1  047             Tx   d 7 04 00 00 00 00 5a ff 
   0.3391 1  048             Tx   d 7 04 00 00 00 00 55 44 
   0.3392 1  041             Tx   d 6 04 fa 00 03 06 aa 
   0.3394 1  042             Tx   d 6 04 fa 00 03 06 a5 
   0.3371 1  CA              Rx   d 8 54 00 7F FE 01 77 30 00
   0.3372 1  CD              Rx   d 2 7E F4
   0.3375 1  153             Rx   d 6 3F 3F 00 01 00 FF
   0.3381 1  CB              Rx   d 8 54 00 80 00 01 77 30 00
   0.3383 1  CE              Rx   d 2 80 00
   0.3385 1  154             Rx   d 6 3F 3F 00 01 00 FF
   0.3486 1  047             Tx   d 7 44 00 00 00 00 5a af 
   0.3488 1  048             Tx   d 7 44 00 00 00 00 55 14 
   0.3490 1  041             Tx   d 6 44 fa 00 03 06 aa 
   0.3492 1  042             Tx   d 6 44 fa 00 03 06 a5 
   0.3471 1  CA              Rx   d 8 54 00 7F FE 01 77 50 00
   0.3472 1  CD              Rx   d 2 7E F4
   0.3474 1  153             Rx   d 6 3F 3F 00 01 00 FF
   0.3482 1  CB              Rx   d 8 54 00 80 00 01 77 50 00
   0.3483 1  CE              Rx   d 2 80 00
   0.3485 1  154             Rx   d 6 3F 3F 00 01 00 FF
   0.3590 1  047             Tx   d 7 84 00 00 00 00 5a 5f 
   0.3592 1  048             Tx   d 7 84 00 00 00 00 55 e4 
   0.3594 1  041             Tx   d 6 84 fa 00 03 06 aa 
   0.3596 1  042             Tx   d 6 84 fa 00 03 06 a5 
   0.3571 1  CA              Rx   d 8 54 00 7F FE 01 76 70 00
   0.3573 1  CD              Rx   d 2 7E F4
   0.3575 1  153             Rx   d 6 3F 3F 00 01 00 FF
   0.3576 1  386             Rx   d 5 4B 4A 4A 41 35
   0.3582 1  CB              Rx   d 8 54 00 80 00 01 76 70 00
   0.3583 1  CE              Rx   d 2 80 00
   0.3585 1  154             Rx   d 6 3F 3F 00 01 00 FF
   0.3587 1  387             Rx   d 5 4B 4A 4A 41 35
   0.3693 1  047             Tx   d 7 c4 00 00 00 00 5a 0f 
   0.3695 1  048             Tx   d 7 c4 00 00 00 00 55 b4 
   0.3697 1  041             Tx   d 6 c4 fa 00 03 06 aa 
   0.3698 1  042             Tx   d 6 c4 fa 00 03 06 a5 
   0.3671 1  CA              Rx   d 8 54 00 7F FE 01 75 10 00
   0.3672 1  CD              Rx   d 2 7E F4
   0.3675 1  153             Rx   d 6 3F 3F 00 01 00 FF
   0.3681 1  CB              Rx   d 8 54 00 80 00 01 75 10 00
   0.3683 1  CE              Rx   d 2 80 00
   0.3685 1  154             Rx   d 6 3F 3F 00 01 00 FF
   0.3789 1  047             Tx   d 7 04 00 00 00 00 5a ff 
   0.3791 1  048             Tx   d 7 04 00 00 00 00 55 44 
   0.3793 1  041             Tx   d 6 04 fa 00 03 06 aa 
   0.3795 1  042             Tx   d 6 04 fa 00 03 06 a5 
   0.3771 1  CA              Rx   d 8 54 00 7F FE 01 74 30 00
   0.3773 1  CD              Rx   d 2 7E F4
   0.3774 1  153             Rx   d 6 3F 3F 00 01 00 FF
   0.3782 1  CB              Rx   d 8 54 00 80 00 01 74 30 00
   0.3783 1  CE              Rx   d 2 80 00
   0.3785 1  154             Rx   d 6 3F 3F 00 01 00 FF
   0.3885 1  047             Tx   d 7 44 00 00 00 00 5a af 
   0.3886 1  048             Tx   d 7 44 00 00 00 00 55 14 
   0.3888 1  041             Tx   d 6 44 fa 00 03 06 aa 
   0.3890 1  042             Tx   d 6 44 fa 00 03 06 a5 
   0.3871 1  CA              Rx   d 8 54 00 7F FE 01 73 50 00
   0.3873 1  CD              Rx   d 2 7E F4
   0.3875 1  153             Rx   d 6 3F 3F 00 01 00 FF
   0.3881 1  CB              Rx   d 8 54 00 80 00 01 74 50 00
   0.3883 1  CE              Rx   d 2 80 00
   0.3885 1  154             Rx   d 6 3F 3F 00 01 00 FF
   0.3984 1  047             Tx   d 7 84 00 00 00 00 5a 5f 
   0.3988 1  048             Tx   d 7 84 00 00 00 00 55 e4 
   0.3991 1  041             Tx   d 6 84 fa 00 03 06 aa 
   0.3993 1  042             Tx   d 6 84 fa 00 03 06 a5 
   0.3971 1  CA              Rx   d 8 54 00 7F FE 01 73 70 00
   0.3972 1  CD              Rx   d 2 7E F4
   0.3974 1  153             Rx   d 6 3F 3F 00 01 00 FF
   0.3981 1  CB              Rx   d 8 54 00 80 00 01 73 70 00
   0.3983 1  CE              Rx   d 2 80 00
   0.3985 1  154             Rx   d 6 3F 3F 00 01 00 FF
   0.4083 1  047             Tx   d 7 c4 00 00 00 00 5a 0f 
   0.4085 1  048             Tx   d 7 c4 00 00 00 00 55 b4 
   0.4087 1  041             Tx   d 6 c4 fa 00 03 06 aa 
   0.4088 1  042             Tx   d 6 c4 fa 00 03 06 a5 
   0.4071 1  CA              Rx   d 8 54 00 7F FE 01 72 10 00
   0.4073 1  CD              Rx   d 2 7E F4
   0.4075 1  153             Rx   d 6 3F 3F 00 01 00 FF
   0.4180 1  047             Tx   d 7 04 00 00 00 00 5a ff 
   0.4182 1  048             Tx   d 7 04 00 00 00 00 55 44 
   0.4184 1  041             Tx   d 6 04 fa 00 03 06 aa 
   0.4185 1  042             Tx   d 6 04 fa 00 03 06 a5 
   0.4082 1  CB              Rx   d 8 54 00 80 00 01 72 10 00
   0.4083 1  CE              Rx   d 2 80 00
   0.4085 1  154             Rx   d 6 3F 3F 00 01 00 FF
   0.4171 1  CA              Rx   d 8 54 00 7F FE 01 71 30 00
   0.4172 1  CD              Rx   d 2 7E F4
   0.4175 1  153             Rx   d 6 3F 3F 00 01 00 FF
   0.4181 1  CB              Rx   d 8 54 00 80 00 01 71 30 00
   0.4183 1  CE              Rx   d 2 80 00
   0.4185 1  154             Rx   d 6 3F 3F 00 01 00 FF
   0.4284 1  047             Tx   d 7 44 00 00 00 00 5a af 
   0.4288 1  048             Tx   d 7 44 00 00 00 00 55 14 
   0.4290 1  041             Tx   d 6 44 fa 00 03 06 aa 
   0.4291 1  042             Tx   d 6 44 fa 00 03 06 a5 
   0.4271 1  CA              Rx   d 8 54 00 7F FE 01 70 50 00
   0.4272 1  CD              Rx   d 2 7E F4
   0.4274 1  153             Rx   d 6 3F 3F 00 01 00 FF
   0.4282 1  CB              Rx   d 8 54 00 80 00 01 70 50 00
   0.4283 1  CE              Rx   d 2 80 00
   0.4285 1  154             Rx   d 6 3F 3F 00 01 00 FF
   0.4384 1  047             Tx   d 7 84 00 00 00 00 5a 5f 
   0.4386 1  048             Tx   d 7 84 00 00 00 00 55 e4 
   0.4388 1  041             Tx   d 6 84 fa 00 03 06 aa 
   0.4389 1  042             Tx   d 6 84 fa 00 03 06 a5 
   0.4371 1  CA              Rx   d 8 54 00 7F FE 01 6F 70 00
   0.4373 1  CD              Rx   d 2 7E F4
   0.4375 1  153             Rx   d 6 3F 3F 00 01 00 FF
   0.4382 1  CB              Rx   d 8 54 00 80 00 01 70 70 00
   0.4383 1  CE              Rx   d 2 80 00
   0.4385 1  154             Rx   d 6 3F 3F 00 01 00 FF
   0.4487 1  047             Tx   d 7 c4 00 00 00 00 5a 0f 
   0.4490 1  048             Tx   d 7 c4 00 00 00 00 55 b4 
   0.4492 1  041             Tx   d 6 c4 fa 00 03 06 aa 
   0.4494 1  042             Tx   d 6 c4 fa 00 03 06 a5 
   0.4471 1  CA              Rx   d 8 54 00 7F FE 01 6F 10 00
   0.4472 1  CD              Rx   d 2 7E F4
   0.4475 1  153             Rx   d 6 3F 3F 00 01 00 FF
   0.4481 1  CB              Rx   d 8 54 00 80 00 01 6F 10 00
   0.4483 1  CE              Rx   d 2 80 00
   0.4485 1  154             Rx   d 6 3F 3F 00 01 00 FF
   0.4584 1  047             Tx   d 7 04 00 00 00 00 5a ff 
   0.4586 1  048             Tx   d 7 04 00 00 00 00 55 44 
   0.4588 1  041             Tx   d 6 04 fa 00 03 06 aa 
   0.4589 1  042             Tx   d 6 04 fa 00 03 06 a5 
   0.4571 1  CA              Rx   d 8 54 00 7F FE 01 6E 30 00
   0.4573 1  CD              Rx   d 2 7E F4
   0.4574 1  153             Rx   d 6 3F 3F 00 01 00 FF
   0.4577 1  386             Rx   d 5 53 53 52 42 41
   0.4582 1  CB              Rx   d 8 54 00 80 00 01 6E 30 00
   0.4583 1  CE              Rx   d 2 80 00
   0.4585 1  154             Rx   d 6 3F 3F 00 01 00 FF
   0.4587 1  387             Rx   d 5 53 53 52 42 42
   0.4689 1  047             Tx   d 7 44 00 00 00 00 5a af 
   0.4691 1  048             Tx   d 7 44 00 00 00 00 55 14 
   0.4693 1  041             Tx   d 6 44 fa 00 03 06 aa 
   0.4694 1  042             Tx   d 6 44 fa 00 03 06 a5 
   0.4671 1  CA              Rx   d 8 54 00 7F FE 01 6D 50 00
   0.4673 1  CD              Rx   d 2 7E F4
   0.4675 1  153             Rx   d 6 3F 3F 00 01 00 FF
   0.4681 1  CB              Rx   d 8 54 00 80 00 01 6D 50 00
   0.4683 1  CE              Rx   d 2 80 00
   0.4685 1  154             Rx   d 6 3F 3F 00 01 00 FF
   0.4789 1  047             Tx   d 7 84 00 00 00 00 5a 5f 
   0.4792 1  048             Tx   d 7 84 00 00 00 00 55 e4 
   0.4793 1  041             Tx   d 6 84 fa 00 03 06 aa 
   0.4795 1  042             Tx   d 6 84 fa 00 03 06 a5 
   0.4771 1  CA              Rx   d 8 54 00 7F FE 01 6C 70 00
   0.4772 1  CD              Rx   d 2 7E F4
   0.4774 1  153             Rx   d 6 3F 3F 00 01 00 FF
   0.4781 1  CB              Rx   d 8 54 00 80 00 01 6C 70 00
   0.4783 1  CE              Rx   d 2 80 00
   0.4785 1  154             Rx   d 6 3F 3F 00 01 00 FF
   0.4884 1  047             Tx   d 7 c4 00 00 00 00 5a 0f 
   0.4886 1  048             Tx   d 7 c4 00 00 00 00 55 b4 
   0.4888 1  041             Tx   d 6 c4 fa 00 03 06 aa 
   0.4890 1  042             Tx   d 6 c4 fa 00 03 06 a5 
   0.4871 1  CA              Rx   d 8 54 00 7F FE 01 6B 10 00
   0.4873 1  CD              Rx   d 2 7E F4
   0.4874 1  153             Rx   d 6 3F 3F 00 01 00 FF
   0.4882 1  CB              Rx   d 8 54 00 80 00 01 6C 10 00
   0.4883 1  CE              Rx   d 2 80 00
   0.4885 1  154             Rx   d 6 3F 3F 00 01 00 FF
   0.4989 1  047             Tx   d 7 04 00 00 00 00 5a ff 
   0.4991 1  048             Tx   d 7 04 00 00 00 00 55 44 
   0.4992 1  041             Tx   d 6 04 fa 00 03 06 aa 
   0.4994 1  042             Tx   d 6 04 fa 00 03 06 a5 
   0.4971 1  CA              Rx   d 8 54 00 7F FE 01 6B 30 00
   0.4972 1  CD              Rx   d 2 7E F4
   0.4975 1  153             Rx   d 6 3F 3F 00 01 00 FF
   0.4981 1  CB              Rx   d 8 54 00 80 00 01 6B 30 00
   0.4983 1  CE              Rx   d 2 80 00
   0.4985 1  154             Rx   d 6 3F 3F 00 01 00 FF
   0.5084 1  047             Tx   d 7 44 00 00 00 00 5a af 
   0.5086 1  048             Tx   d 7 44 00 00 00 00 55 14 
   0.5087 1  041             Tx   d 6 44 fa 00 03 06 aa 
   0.5089 1  042             Tx   d 6 44 fa 00 03 06 a5 
   0.5071 1  CA              Rx   d 8 54 00 7F FE 01 6A 50 00
   0.5072 1  CD              Rx   d 2 7E F4
   0.5074 1  153             Rx   d 6 3F 3F 00 01 00 FF
   0.5081 1  CB              Rx   d 8 54 00 80 00 01 6A 50 00
   0.5083 1  CE              Rx   d 2 80 00
   0.5085 1  154             Rx   d 6 3F 3F 00 01 00 FF
   0.5183 1  047             Tx   d 7 84 00 00 00 00 5a 5f 
   0.5185 1  048             Tx   d 7 84 00 00 00 00 55 e4 
   0.5187 1  041             Tx   d 6 84 fa 00 03 06 aa 
   0.5189 1  042             Tx   d 6 84 fa 00 03 06 a5 
   0.5171 1  CA              Rx   d 8 54 00 7F FE 01 69 70 00
   0.5173 1  CD              Rx   d 2 7E F4
   0.5175 1  153             Rx   d 6 3F 3F 00 01 00 FF
   0.5182 1  CB              Rx   d 8 54 00 80 00 01 69 70 00
   0.5183 1  CE              Rx   d 2 80 00
   0.5185 1  154             Rx   d 6 3F 3F 00 01 00 FF
   0.5281 1  047             Tx   d 7 c4 00 00 00 00 5a 0f 
   0.5283 1  048             Tx   d 7 c4 00 00 00 00 55 b4 
   0.5285 1  041             Tx   d 6 c4 fa 00 03 06 aa 
   0.5286 1  042             Tx   d 6 c4 fa 00 03 06 a5 
   0.5271 1  CA              Rx   d 8 54 00 7F FE 01 68 10 00
   0.5272 1  CD              Rx   d 2 7E F4
   0.5275 1  153             Rx   d 6 3F 3F 00 01 00 FF
   0.5281 1  CB              Rx   d 8 54 00 80 00 01 69 10 00
   0.5283 1  CE              Rx   d 2 80 00
   0.5285 1  154             Rx   d 6 3F 3F 00 01 00 FF
   0.5384 1  047             Tx   d 7 04 00 00 00 00 5a ff 
   0.5386 1  048             Tx   d 7 04 00 00 00 00 55 44 
   0.5388 1  041             Tx   d 6 04 fa 00 03 06 aa 
   0.5390 1  042             Tx   d 6 04 fa 00 03 06 a5 
   0.5371 1  CA              Rx   d 8 54 00 7F FE 01 68 30 00
   0.5373 1  CD              Rx   d 2 7E F4
   0.5374 1  153             Rx   d 6 3F 3F 00 01 00 FF
   0.5382 1  CB              Rx   d 8 54 00 80 00 01 68 30 00
   0.5383 1  CE              Rx   d 2 80 00
   0.5385 1  154             Rx   d 6 3F 3F 00 01 00 FF
   0.5483 1  047             Tx   d 7 44 00 00 00 00 5a af 
   0.5486 1  048             Tx   d 7 44 00 00 00 00 55 14 
   0.5487 1  041             Tx   d 6 44 fa 00 03 06 aa 
   0.5489 1  042             Tx   d 6 44 fa 00 03 06 a5 
   0.5471 1  CA              Rx   d 8 54 00 7F FE 01 67 50 00
   0.5473 1  CD              Rx   d 2 7E F4
   0.5475 1  153             Rx   d 6 3F 3F 00 01 00 FF
   0.5481 1  CB              Rx   d 8 54 00 80 00 01 67 50 00
   0.5483 1  CE              Rx   d 2 80 00
   0.5485 1  154             Rx   d 6 3F 3F 00 01 00 FF
   0.5583 1  047             Tx   d 7 84 00 00 00 00 5a 5f 
   0.5585 1  048             Tx   d 7 84 00 00 00 00 55 e4 
   0.5587 1  041             Tx   d 6 84 fa 00 03 06 aa 
   0.5588 1  042             Tx   d 6 84 fa 00 03 06 a5 
   0.5571 1  CA              Rx   d 8 54 00 7F FE 01 66 70 00
   0.5572 1  CD              Rx   d 2 7E F4
   0.5574 1  153             Rx   d 6 3F 3F 00 01 00 FF
   0.5576 1  386             Rx   d 5 5B 5B 5A 43 33
   0.5581 1  CB              Rx   d 8 54 00 80 00 01 66 70 00
   0.5583 1  CE              Rx   d 2 80 00
   0.5585 1  154             Rx   d 6 3F 3F 00 01 00 FF
   0.5586 1  387             Rx   d 5 5B 5B 5A 43 33
   0.5687 1  047             Tx   d 7 c4 00 00 00 00 5a 0f 
   0.5689 1  048             Tx   d 7 c4 00 00 00 00 55 b4 
   0.5691 1  041             Tx   d 6 c4 fa 00 03 06 aa 
   0.5692 1  042             Tx   d 6 c4 fa 00 03 06 a5 
   0.5671 1  CA              Rx   d 8 54 00 7F FE 01 65 10 00
   0.5673 1  CD              Rx   d 2 7E F4
   0.5674 1  153             Rx   d 6 3F 3F 00 01 00 FF
   0.5682 1  CB              Rx   d 8 54 00 80 00 01 65 10 00
   0.5683 1  CE              Rx   d 2 80 00
   0.5685 1  154             Rx   d 6 3F 3F 00 01 00 FF
   0.5782 1  047             Tx   d 7 04 00 00 00 00 5a ff 
   0.5785 1  048             Tx   d 7 04 00 00 00 00 55 44 
   0.5786 1  041             Tx   d 6 04 fa 00 03 06 aa 
   0.5788 1  042             Tx   d 6 04 fa 00 03 06 a5 
   0.5771 1  CA              Rx   d 8 54 00 7F FE 01 64 30 00
   0.5772 1  CD              Rx   d 2 7E F4
   0.5775 1  153             Rx   d 6 3F 3F 00 01 00 FF
   0.5781 1  CB              Rx   d 8 54 00 80 00 01 64 30 00
   0.5783 1  CE              Rx   d 2 80 00
   0.5785 1  154             Rx   d 6 3F 3F 00 01 00 FF
   0.5885 1  047             Tx   d 7 44 00 00 00 00 5a af 
   0.5887 1  048             Tx   d 7 44 00 00 00 00 55 14 
   0.5889 1  041             Tx   d 6 44 fa 00 03 06 aa 
   0.5890 1  042             Tx   d 6 44 fa 00 03 06 a5 
   0.5871 1  CA              Rx   d 8 54 00 7F FE 01 64 50 00
   0.5872 1  CD              Rx   d 2 7E F4
   0.5874 1  153             Rx   d 6 3F 3F 00 01 00 FF
   0.5881 1  CB              Rx   d 8 54 00 80 00 01 64 50 00
   0.5883 1  CE              Rx   d 2 80 00
   0.5885 1  154             Rx   d 6 3F 3F 00 01 00 FF
   0.5995 1  047             Tx   d 7 84 00 00 00 00 5a 5f 
   0.6001 1  048             Tx   d 7 84 00 00 00 00 55 e4 
   0.6005 1  041             Tx   d 6 84 fa 00 03 06 aa 
   0.6007 1  042             Tx   d 6 84 fa 00 03 06 a5 
   0.5971 1  CA              Rx   d 8 54 00 7F FE 01 63 70 00
   0.5973 1  CD              Rx   d 2 7E F4
   0.5975 1  153             Rx   d 6 3F 3F 00 01 00 FF
   0.5982 1  CB              Rx   d 8 54 00 80 00 01 63 70 00
   0.5983 1  CE              Rx   d 2 80 00
   0.5985 1  154             Rx   d 6 3F 3F 00 01 00 FF
   0.6096 1  047             Tx   d 7 c4 00 00 00 00 5a 0f 
   0.6099 1  048             Tx   d 7 c4 00 00 00 00 55 b4 
   0.6100 1  041             Tx   d 6 c4 fa 00 03 06 aa 
   0.6102 1  042             Tx   d 6 c4 fa 00 03 06 a5 
   0.6071 1  CA              Rx   d 8 54 00 7F FE 01 62 10 00
   0.6072 1  CD              Rx   d 2 7E F4
   0.6075 1  153             Rx   d 6 3F 3F 00 01 00 FF
   0.6081 1  CB              Rx   d 8 54 00 80 00 01 62 10 00
   0.6083 1  CE              Rx   d 2 80 00
   0.6085 1  154             Rx   d 6 3F 3F 00 01 00 FF
   0.6191 1  047             Tx   d 7 04 00 00 00 00 5a ff 
   0.6193 1  048             Tx   d 7 04 00 00 00 00 55 44 
   0.6195 1  041             Tx   d 6 04 fa 00 03 06 aa 
   0.6196 1  042             Tx   d 6 04 fa 00 03 06 a5 
   0.6171 1  CA              Rx   d 8 54 00 7F FE 01 61 30 00
   0.6173 1  CD              Rx   d 2 7E F4
   0.6174 1  153             Rx   d 6 3F 3F 00 01 00 FF
   0.6182 1  CB              Rx   d 8 54 00 80 00 01 62 30 00
   0.6183 1  CE              Rx   d 2 80 00
   0.6185 1  154             Rx   d 6 3F 3F 00 01 00 FF
   0.6287 1  047             Tx   d 7 44 00 00 00 00 5a af 
   0.6289 1  048             Tx   d 7 44 00 00 00 00 55 14 
   0.6291 1  041             Tx   d 6 44 fa 00 03 06 aa 
   0.6293 1  042             Tx   d 6 44 fa 00 03 06 a5 
   0.6271 1  CA              Rx   d 8 54 00 7F FE 01 61 50 00
   0.6273 1  CD              Rx   d 2 7E F4
   0.6275 1  153             Rx   d 6 3F 3F 00 01 00 FF
   0.6281 1  CB              Rx   d 8 54 00 80 00 01 61 50 00
   0.6283 1  CE              Rx   d 2 80 00
   0.6285 1  154             Rx   d 6 3F 3F 00 01 00 FF
   0.6382 1  047             Tx   d 7 84 00 00 00 00 5a 5f 
   0.6384 1  048             Tx   d 7 84 00 00 00 00 55 e4 
   0.6386 1  041             Tx   d 6 84 fa 00 03 06 aa 
   0.6387 1  042             Tx   d 6 84 fa 00 03 06 a5 
   0.6371 1  CA              Rx   d 8 54 00 7F FE 01 60 70 00
   0.6372 1  CD              Rx   d 2 7E F4
   0.6374 1  153             Rx   d 6 3F 3F 00 01 00 FF
   0.6381 1  CB              Rx   d 8 54 00 80 00 01 60 70 00
   0.6383 1  CE              Rx   d 2 80 00
   0.6385 1  154             Rx   d 6 3F 3F 00 01 00 FF
   0.6478 1  047             Tx   d 7 c4 00 00 00 00 5a 0f 
   0.6480 1  048             Tx   d 7 c4 00 00 00 00 55 b4 
   0.6482 1  041             Tx   d 6 c4 fa 00 03 06 aa 
   0.6483 1  042             Tx   d 6 c4 fa 00 03 06 a5 
   0.6471 1  CA              Rx   d 8 54 00 7F FE 01 5F 10 00
   0.6473 1  CD              Rx   d 2 7E F4
   0.6475 1  153             Rx   d 6 3F 3F 00 01 00 FF
   0.6573 1  047             Tx   d 7 04 00 00 00 00 5a ff 
   0.6575 1  048             Tx   d 7 04 00 00 00 00 55 44 
   0.6577 1  041             Tx   d 6 04 fa 00 03 06 aa 
   0.6578 1  042             Tx   d 6 04 fa 00 03 06 a5 
   0.6482 1  CB              Rx   d 8 54 00 80 00 01 60 10 00
   0.6483 1  CE              Rx   d 2 80 00
   0.6485 1  154             Rx   d 6 3F 3F 00 01 00 FF
   0.6571 1  CA              Rx   d 8 54 00 7F FE 01 5E 30 00
   0.6572 1  CD              Rx   d 2 7E F4
   0.6575 1  153             Rx   d 6 3F 3F 00 01 00 FF
   0.6576 1  386             Rx   d 5 63 62 62 44 30
   0.6579 1  684             Rx   d 8 00 00 00 00 00 00 00 00
   0.6581 1  CB              Rx   d 8 54 00 80 00 01 5F 30 00
   0.6583 1  CE              Rx   d 2 80 00
   0.6585 1  154             Rx   d 6 3F 3F 00 01 00 FF
   0.6587 1  387             Rx   d 5 63 62 62 44 30
   0.6589 1  685             Rx   d 8 00 00 00 00 00 00 00 00
   0.6693 1  047             Tx   d 7 44 00 00 00 00 5a af 
   0.6696 1  048             Tx   d 7 44 00 00 00 00 55 14 
   0.6698 1  041             Tx   d 6 44 fa 00 03 06 aa 
   0.6699 1  042             Tx   d 6 44 fa 00 03 06 a5 
   0.6671 1  CA              Rx   d 8 54 00 7F FE 01 5E 50 00
   0.6672 1  CD              Rx   d 2 7E F4
   0.6674 1  153             Rx   d 6 3F 3F 00 01 00 FF
   0.6681 1  CB              Rx   d 8 54 00 80 00 01 5E 50 00
   0.6683 1  CE              Rx   d 2 80 00
   0.6685 1  154             Rx   d 6 3F 3F 00 01 00 FF
   0.6790 1  047             Tx   d 7 84 00 00 00 00 5a 5f 
   0.6792 1  048             Tx   d 7 84 00 00 00 00 55 e4 
   0.6794 1  041             Tx   d 6 84 fa 00 03 06 aa 
   0.6795 1  042             Tx   d 6 84 fa 00 03 06 a5 
   0.6771 1  CA              Rx   d 8 54 00 7F FE 01 5D 70 00
   0.6773 1  CD              Rx   d 2 7E F4
   0.6775 1  153             Rx   d 6 3F 3F 00 01 00 FF
   0.6782 1  CB              Rx   d 8 54 00 80 00 01 5D 70 00
   0.6783 1  CE              Rx   d 2 80 00
   0.6785 1  154             Rx   d 6 3F 3F 00 01 00 FF
   0.6885 1  047             Tx   d 7 c4 00 00 00 00 5a 0f 
   0.6887 1  048             Tx   d 7 c4 00 00 00 00 55 b4 
   0.6888 1  041             Tx   d 6 c4 fa 00 03 06 aa 
   0.6890 1  042             Tx   d 6 c4 fa 00 03 06 a5 
   0.6871 1  CA              Rx   d 8 54 00 7F FE 01 5C 10 00
   0.6872 1  CD              Rx   d 2 7E F4
   0.6875 1  153             Rx   d 6 3F 3F 00 01 00 FF
   0.6881 1  CB              Rx   d 8 54 00 80 00 01 5C 10 00
   0.6883 1  CE              Rx   d 2 80 00
   0.6885 1  154             Rx   d 6 3F 3F 00 01 00 FF
   0.6980 1  047             Tx   d 7 04 00 00 00 00 5a ff 
   0.6982 1  048             Tx   d 7 04 00 00 00 00 55 44 
   0.6983 1  041             Tx   d 6 04 fa 00 03 06 aa 
   0.6985 1  042             Tx   d 6 04 fa 00 03 06 a5 
   0.6971 1  CA              Rx   d 8 54 00 7F FE 01 5B 30 00
   0.6972 1  CD              Rx   d 2 7E F4
   0.6974 1  153             Rx   d 6 3F 3F 00 01 00 FF
   0.6981 1  CB              Rx   d 8 54 00 80 00 01 5C 30 00
   0.6983 1  CE              Rx   d 2 80 00
   0.6985 1  154             Rx   d 6 3F 3F 00 01 00 FF
   0.7085 1  047             Tx   d 7 44 00 00 00 00 5a af 
   0.7087 1  048             Tx   d 7 44 00 00 00 00 55 14 
   0.7089 1  041             Tx   d 6 44 fa 00 03 06 aa 
   0.7090 1  042             Tx   d 6 44 fa 00 03 06 a5 
   0.7071 1  CA              Rx   d 8 54 00 7F FE 01 5A 50 00
   0.7073 1  CD              Rx   d 2 7E F4
   0.7075 1  153             Rx   d 6 3F 3F 00 01 00 FF
   0.7081 1  CB              Rx   d 8 54 00 80 00 01 5B 50 00
   0.7083 1  CE              Rx   d 2 80 00
   0.7085 1  154             Rx   d 6 3F 3F 00 01 00 FF
   0.7183 1  047             Tx   d 7 84 00 00 00 00 5a 5f 
   0.7185 1  048             Tx   d 7 84 00 00 00 00 55 e4 
   0.7186 1  041             Tx   d 6 84 fa 00 03 06 aa 
   0.7188 1  042             Tx   d 6 84 fa 00 03 06 a5 
   0.7171 1  CA              Rx   d 8 54 00 7F FE 01 59 70 00
   0.7172 1  CD              Rx   d 2 7E F4
   0.7174 1  153             Rx   d 6 3F 3F 00 01 00 FF
   0.7181 1  CB              Rx   d 8 54 00 80 00 01 5A 70 00
   0.7183 1  CE              Rx   d 2 80 00
   0.7185 1  154             Rx   d 6 3F 3F 00 01 00 FF
   0.7281 1  047             Tx   d 7 c4 00 00 00 00 5a 0f 
   0.7283 1  048             Tx   d 7 c4 00 00 00 00 55 b4 
   0.7285 1  041             Tx   d 6 c4 fa 00 03 06 aa 
   0.7287 1  042             Tx   d 6 c4 fa 00 03 06 a5 
   0.7271 1  CA              Rx   d 8 54 00 7F FE 01 59 10 00
   0.7273 1  CD              Rx   d 2 7E F4
   0.7274 1  153             Rx   d 6 3F 3F 00 01 00 FF
   0.7282 1  CB              Rx   d 8 54 00 80 00 01 59 10 00
   0.7283 1  CE              Rx   d 2 80 00
   0.7285 1  154             Rx   d 6 3F 3F 00 01 00 FF
   0.7383 1  047             Tx   d 7 04 00 00 00 00 5a ff 
   0.7386 1  048             Tx   d 7 04 00 00 00 00 55 44 
   0.7387 1  041             Tx   d 6 04 fa 00 03 06 aa 
   0.7389 1  042             Tx   d 6 04 fa 00 03 06 a5 
   0.7371 1  CA              Rx   d 8 54 00 7F FE 01 58 30 00
   0.7372 1  CD              Rx   d 2 7E F4
   0.7375 1  153             Rx   d 6 3F 3F 00 01 00 FF
   0.7381 1  CB              Rx   d 8 54 00 80 00 01 58 30 00
   0.7383 1  CE              Rx   d 2 80 00
   0.7385 1  154             Rx   d 6 3F 3F 00 01 00 FF
   0.7523 1  047             Tx   d 7 44 00 00 00 00 5a af 
   0.7529 1  048             Tx   d 7 44 00 00 00 00 55 14 
   0.7534 1  041             Tx   d 6 44 fa 00 03 06 aa 
   0.7539 1  042             Tx   d 6 44 fa 00 03 06 a5 
   0.7471 1  CA              Rx   d 8 54 00 7F FE 01 57 50 00
   0.7474 1  CD              Rx   d 2 7E F4
   0.7477 1  153             Rx   d 6 3F 3F 00 01 00 FF
   0.7482 1  CB              Rx   d 8 54 00 80 00 01 58 50 00
   0.7483 1  CE              Rx   d 2 80 00
   0.7488 1  154             Rx   d 6 3F 3F 00 01 00 FF
   0.7571 1  CA              Rx   d 8 54 00 7F FE 01 56 70 00
   0.7572 1  CD              Rx   d 2 7E F4
   0.7574 1  153             Rx   d 6 3F 3F 00 01 00 FF
   0.7576 1  386             Rx   d 5 6B 6B 6A 45 31
   0.7581 1  CB              Rx   d 8 54 00 80 00 01 57 70 00
   0.7582 1  CE              Rx   d 2 80 00
   0.7584 1  154             Rx   d 6 3F 3F 00 01 00 FF
   0.7586 1  387             Rx   d 5 6B 6B 6A 45 31
   0.7711 1  047             Tx   d 7 84 00 00 00 00 5a 5f 
   0.7716 1  048             Tx   d 7 84 00 00 00 00 55 e4 
   0.7720 1  041             Tx   d 6 84 fa 00 03 06 aa 
   0.7724 1  042             Tx   d 6 84 fa 00 03 06 a5 
   0.7673 1  CA              Rx   d 8 54 00 7F FE 01 56 10 00
   0.7676 1  CD              Rx   d 2 7E F4
   0.7678 1  153             Rx   d 6 3F 3F 00 01 00 FF
   0.7681 1  CB              Rx   d 8 54 00 80 00 01 56 10 00
   0.7683 1  CE              Rx   d 2 80 00
   0.7685 1  154             Rx   d 6 3F 3F 00 01 00 FF
   0.7839 1  047             Tx   d 7 c4 00 00 00 00 5a 0f 
   0.7845 1  048             Tx   d 7 c4 00 00 00 00 55 b4 
   0.7771 1  CA              Rx   d 8 54 00 7F FE 01 55 30 00
   0.7772 1  CD              Rx   d 2 7E F4
   0.7774 1  153             Rx   d 6 3F 3F 00 01 00 FF
   0.7781 1  CB              Rx   d 8 54 00 80 00 01 55 30 00
   0.7782 1  CE              Rx   d 2 80 00
   0.7784 1  154             Rx   d 6 3F 3F 00 01 00 FF
   0.7895 1  041             Tx   d 6 c4 fa 00 03 06 aa 
   0.7900 1  042             Tx   d 6 c4 fa 00 03 06 a5 
   0.7871 1  CA              Rx   d 8 54 00 7F FE 01 54 50 00
   0.7873 1  CD              Rx   d 2 7E F4
   0.7874 1  153             Rx   d 6 3F 3F 00 01 00 FF
   0.7881 1  CB              Rx   d 8 54 00 80 00 01 54 50 00
   0.7883 1  CE              Rx   d 2 80 00
   0.7885 1  154             Rx   d 6 3F 3F 00 01 00 FF
   0.8028 1  047             Tx   d 7 04 00 00 00 00 5a ff 
   0.8033 1  048             Tx   d 7 04 00 00 00 00 55 44 
   0.8036 1  041             Tx   d 6 04 fa 00 03 06 aa 
   0.8040 1  042             Tx   d 6 04 fa 00 03 06 a5 
   0.7971 1  CA              Rx   d 8 54 00 7F FE 01 53 70 00
   0.7972 1  CD              Rx   d 2 7E F4
   0.7974 1  153             Rx   d 6 3F 3F 00 01 00 FF
   0.7981 1  CB              Rx   d 8 54 00 80 00 01 54 70 00
   0.7984 1  CE              Rx   d 2 80 00
   0.7986 1  154             Rx   d 6 3F 3F 00 01 00 FF
   0.8071 1  CA              Rx   d 8 54 00 7F FE 01 52 10 00
   0.8072 1  CD              Rx   d 2 7E F4
   0.8074 1  153             Rx   d 6 3F 3F 00 01 00 FF
   0.8081 1  CB              Rx   d 8 54 00 80 00 01 53 10 00
   0.8082 1  CE              Rx   d 2 80 00
   0.8084 1  154             Rx   d 6 3F 3F 00 01 00 FF
   0.8190 1  047             Tx   d 7 44 00 00 00 00 5a af 
   0.8205 1  048             Tx   d 7 44 00 00 00 00 55 14 
   0.8209 1  041             Tx   d 6 44 fa 00 03 06 aa 
   0.8213 1  042             Tx   d 6 44 fa 00 03 06 a5 
   0.8171 1  CA              Rx   d 8 54 00 7F FE 01 52 30 00
   0.8172 1  CD              Rx   d 2 7E F4
   0.8175 1  153             Rx   d 6 3F 3F 00 01 00 FF
   0.8181 1  CB              Rx   d 8 54 00 80 00 01 52 30 00
   0.8183 1  CE              Rx   d 2 80 00
   0.8185 1  154             Rx   d 6 3F 3F 00 01 00 FF
   0.8330 1  047             Tx   d 7 84 00 00 00 00 5a 5f 
   0.8335 1  048             Tx   d 7 84 00 00 00 00 55 e4 
   0.8339 1  041             Tx   d 6 84 fa 00 03 06 aa 
   0.8342 1  042             Tx   d 6 84 fa 00 03 06 a5 
   0.8271 1  CA              Rx   d 8 54 00 7F FE 01 51 50 00
   0.8272 1  CD              Rx   d 2 7E F4
   0.8274 1  153             Rx   d 6 3F 3F 00 01 00 FF
   0.8281 1  CB              Rx   d 8 54 00 80 00 01 51 50 00
   0.8283 1  CE              Rx   d 2 80 00
   0.8287 1  154             Rx   d 6 3F 3F 00 01 00 FF
   0.8371 1  CA              Rx   d 8 54 00 7F FE 01 50 70 00
   0.8372 1  CD              Rx   d 2 7E F4
   0.8374 1  153             Rx   d 6 3F 3F 00 01 00 FF
   0.8381 1  CB              Rx   d 8 54 00 80 00 01 50 70 00
   0.8382 1  CE              Rx   d 2 80 00
   0.8384 1  154             Rx   d 6 3F 3F 00 01 00 FF
   0.8473 1  047             Tx   d 7 c4 00 00 00 00 5a 0f 
   0.8480 1  048             Tx   d 7 c4 00 00 00 00 55 b4 
   0.8482 1  041             Tx   d 6 c4 fa 00 03 06 aa 
   0.8484 1  042             Tx   d 6 c4 fa 00 03 06 a5 
   0.8471 1  CA              Rx   d 8 54 00 7F FE 01 4F 10 00
   0.8472 1  CD              Rx   d 2 7E F4
   0.8475 1  153             Rx   d 6 3F 3F 00 01 00 FF
   0.8481 1  CB              Rx   d 8 54 00 80 00 01 50 10 00
   0.8483 1  CE              Rx   d 2 80 00
   0.8485 1  154             Rx   d 6 3F 3F 00 01 00 FF
   0.8586 1  047             Tx   d 7 04 00 00 00 00 5a ff 
   0.8588 1  048             Tx   d 7 04 00 00 00 00 55 44 
   0.8590 1  041             Tx   d 6 04 fa 00 03 06 aa 
   0.8591 1  042             Tx   d 6 04 fa 00 03 06 a5 
   0.8571 1  CA              Rx   d 8 54 00 7F FE 01 4F 30 00
   0.8572 1  CD              Rx   d 2 7E F4
   0.8574 1  153             Rx   d 6 3F 3F 00 01 00 FF
   0.8577 1  386             Rx   d 5 73 73 70 46 31
   0.8581 1  CB              Rx   d 8 54 00 80 00 01 4F 30 00
   0.8583 1  CE              Rx   d 2 80 00
   0.8585 1  154             Rx   d 6 3F 3F 00 01 00 FF
   0.8587 1  387             Rx   d 5 73 73 70 46 31
   0.8684 1  047             Tx   d 7 44 00 00 00 00 5a af 
   0.8686 1  048             Tx   d 7 44 00 00 00 00 55 14 
   0.8688 1  041             Tx   d 6 44 fa 00 03 06 aa 
   0.8690 1  042             Tx   d 6 44 fa 00 03 06 a5 
   0.8671 1  CA              Rx   d 8 54 00 7F FE 01 4E 50 00
   0.8673 1  CD              Rx   d 2 7E F4
   0.8675 1  153             Rx   d 6 3F 3F 00 01 00 FF
   0.8681 1  CB              Rx   d 8 54 00 80 00 01 4E 50 00
   0.8683 1  CE              Rx   d 2 80 00
   0.8685 1  154             Rx   d 6 3F 3F 00 01 00 FF
   0.8781 1  047             Tx   d 7 84 00 00 00 00 5a 5f 
   0.8783 1  048             Tx   d 7 84 00 00 00 00 55 e4 
   0.8785 1  041             Tx   d 6 84 fa 00 03 06 aa 
   0.8786 1  042             Tx   d 6 84 fa 00 03 06 a5 
   0.8771 1  CA              Rx   d 8 54 00 7F FE 01 4D 70 00
   0.8772 1  CD              Rx   d 2 7E F4
   0.8774 1  153             Rx   d 6 3F 3F 00 01 00 FF
   0.8781 1  CB              Rx   d 8 54 00 80 00 01 4D 70 00
   0.8783 1  CE              Rx   d 2 80 00
   0.8785 1  154             Rx   d 6 3F 3F 00 01 00 FF
   0.8879 1  047             Tx   d 7 c4 00 00 00 00 5a 0f 
   0.8881 1  048             Tx   d 7 c4 00 00 00 00 55 b4 
   0.8883 1  041             Tx   d 6 c4 fa 00 03 06 aa 
   0.8885 1  042             Tx   d 6 c4 fa 00 03 06 a5 
   0.8871 1  CA              Rx   d 8 54 00 7F FE 01 4C 10 00
   0.8873 1  CD              Rx   d 2 7E F4
   0.8874 1  153             Rx   d 6 3F 3F 00 01 00 FF
   0.8882 1  CB              Rx   d 8 54 00 80 00 01 4C 10 00
   0.8883 1  CE              Rx   d 2 80 00
   0.8885 1  154             Rx   d 6 3F 3F 00 01 00 FF
   0.8984 1  047             Tx   d 7 04 00 00 00 00 5a ff 
   0.8988 1  048             Tx   d 7 04 00 00 00 00 55 44 
   0.8990 1  041             Tx   d 6 04 fa 00 03 06 aa 
   0.8992 1  042             Tx   d 6 04 fa 00 03 06 a5 
   0.8971 1  CA              Rx   d 8 54 00 7F FE 01 4C 30 00
   0.8972 1  CD              Rx   d 2 7E F4
   0.8975 1  153             Rx   d 6 3F 3F 00 01 00 FF
   0.8981 1  CB              Rx   d 8 54 00 80 00 01 4B 30 00
   0.8983 1  CE              Rx   d 2 80 00
   0.8985 1  154             Rx   d 6 3F 3F 00 01 00 FF
   0.9085 1  047             Tx   d 7 44 00 00 00 00 5a af 
   0.9087 1  048             Tx   d 7 44 00 00 00 00 55 14 
   0.9089 1  041             Tx   d 6 44 fa 00 03 06 aa 
   0.9091 1  042             Tx   d 6 44 fa 00 03 06 a5 
   0.9071 1  CA              Rx   d 8 54 00 7F FE 01 4B 50 00
   0.9073 1  CD              Rx   d 2 7E F4
   0.9074 1  153             Rx   d 6 3F 3F 00 01 00 FF
   0.9081 1  CB              Rx   d 8 54 00 80 00 01 4B 50 00
   0.9083 1  CE              Rx   d 2 80 00
   0.9085 1  154             Rx   d 6 3F 3F 00 01 00 FF
   0.9181 1  047             Tx   d 7 84 00 00 00 00 5a 5f 
   0.9183 1  048             Tx   d 7 84 00 00 00 00 55 e4 
   0.9185 1  041             Tx   d 6 84 fa 00 03 06 aa 
   0.9186 1  042             Tx   d 6 84 fa 00 03 06 a5 
   0.9171 1  CA              Rx   d 8 54 00 7F FE 01 4A 70 00
   0.9173 1  CD              Rx   d 2 7E F4
   0.9175 1  153             Rx   d 6 3F 3F 00 01 00 FF
   0.9182 1  CB              Rx   d 8 54 00 80 00 01 4A 70 00
   0.9183 1  CE              Rx   d 2 80 00
   0.9185 1  154             Rx   d 6 3F 3F 00 01 00 FF
   0.9281 1  047             Tx   d 7 c4 00 00 00 00 5a 0f 
   0.9283 1  048             Tx   d 7 c4 00 00 00 00 55 b4 
   0.9285 1  041             Tx   d 6 c4 fa 00 03 06 aa 
   0.9286 1  042             Tx   d 6 c4 fa 00 03 06 a5 
   0.9271 1  CA              Rx   d 8 54 00 7F FE 01 49 10 00
   0.9272 1  CD              Rx   d 2 7E F4
   0.9275 1  153             Rx   d 6 3F 3F 00 01 00 FF
   0.9281 1  CB              Rx   d 8 54 00 80 00 01 49 10 00
   0.9283 1  CE              Rx   d 2 80 00
   0.9285 1  154             Rx   d 6 3F 3F 00 01 00 FF
   0.9379 1  047             Tx   d 7 04 00 00 00 00 5a ff 
   0.9381 1  048             Tx   d 7 04 00 00 00 00 55 44 
   0.9383 1  041             Tx   d 6 04 fa 00 03 06 aa 
   0.9385 1  042             Tx   d 6 04 fa 00 03 06 a5 
   0.9371 1  CA              Rx   d 8 54 00 7F FE 01 49 30 00
   0.9372 1  CD              Rx   d 2 7E F4
   0.9374 1  153             Rx   d 6 3F 3F 00 01 00 FF
   0.9381 1  CB              Rx   d 8 54 00 80 00 01 49 30 00
   0.9383 1  CE              Rx   d 2 80 00
   0.9385 1  154             Rx   d 6 3F 3F 00 01 00 FF
   0.9484 1  047             Tx   d 7 44 00 00 00 00 5a af 
   0.9487 1  048             Tx   d 7 44 00 00 00 00 55 14 
   0.9488 1  041             Tx   d 6 44 fa 00 03 06 aa 
   0.9490 1  042             Tx   d 6 44 fa 00 03 06 a5 
   0.9471 1  CA              Rx   d 8 54 00 7F FE 01 48 50 00
   0.9473 1  CD              Rx   d 2 7E F4
   0.9475 1  153             Rx   d 6 3F 3F 00 01 00 FF
   0.9481 1  CB              Rx   d 8 54 00 80 00 01 48 50 00
   0.9483 1  CE              Rx   d 2 80 00
   0.9485 1  154             Rx   d 6 3F 3F 00 01 00 FF
   0.9592 1  047             Tx   d 7 84 00 00 00 00 5a 5f 
   0.9595 1  048             Tx   d 7 84 00 00 00 00 55 e4 
   0.9596 1  041             Tx   d 6 84 fa 00 03 06 aa 
   0.9598 1  042             Tx   d 6 84 fa 00 03 06 a5 
   0.9571 1  CA              Rx   d 8 54 00 7F FE 01 47 70 00
   0.9572 1  CD              Rx   d 2 7E F4
   0.9574 1  153             Rx   d 6 3F 3F 00 01 00 FF
   0.9576 1  386             Rx   d 5 7B 7B 7B 47 36
   0.9581 1  CB              Rx   d 8 54 00 80 00 01 47 70 00
   0.9583 1  CE              Rx   d 2 80 00
   0.9585 1  154             Rx   d 6 3F 3F 00 01 00 FF
   0.9586 1  387             Rx   d 5 7B 7B 7B 47 36
   0.9687 1  047             Tx   d 7 c4 00 00 00 00 5a 0f 
   0.9689 1  048             Tx   d 7 c4 00 00 00 00 55 b4 
   0.9691 1  041             Tx   d 6 c4 fa 00 03 06 aa 
   0.9693 1  042             Tx   d 6 c4 fa 00 03 06 a5 
   0.9671 1  CA              Rx   d 8 54 00 7F FE 01 46 10 00
   0.9672 1  CD              Rx   d 2 7E F4
   0.9674 1  153             Rx   d 6 3F 3F 00 01 00 FF
   0.9681 1  CB              Rx   d 8 54 00 80 00 01 46 10 00
   0.9683 1  CE              Rx   d 2 80 00
   0.9685 1  154             Rx   d 6 3F 3F 00 01 00 FF
   0.9789 1  047             Tx   d 7 04 00 00 00 00 5a ff 
   0.9791 1  048             Tx   d 7 04 00 00 00 00 55 44 
   0.9793 1  041             Tx   d 6 04 fa 00 03 06 aa 
   0.9795 1  042             Tx   d 6 04 fa 00 03 06 a5 
   0.9771 1  CA              Rx   d 8 54 00 7F FE 01 45 30 00
   0.9772 1  CD              Rx   d 2 7E F4
   0.9775 1  153             Rx   d 6 3F 3F 00 01 00 FF
   0.9781 1  CB              Rx   d 8 54 00 80 00 01 45 30 00
   0.9783 1  CE              Rx   d 2 80 00
   0.9785 1  154             Rx   d 6 3F 3F 00 01 00 FF
   0.9884 1  047             Tx   d 7 44 00 00 00 00 5a af 
   0.9886 1  048             Tx   d 7 44 00 00 00 00 55 14 
   0.9888 1  041             Tx   d 6 44 fa 00 03 06 aa 
   0.9889 1  042             Tx   d 6 44 fa 00 03 06 a5 
   0.9871 1  CA              Rx   d 8 54 00 7F FE 01 45 50 00
   0.9872 1  CD              Rx   d 2 7E F4
   0.9874 1  153             Rx   d 6 3F 3F 00 01 00 FF
   0.9881 1  CB              Rx   d 8 54 00 80 00 01 45 50 00
   0.9883 1  CE              Rx   d 2 80 00
   0.9885 1  154             Rx   d 6 3F 3F 00 01 00 FF
   0.9985 1  047             Tx   d 7 84 00 00 00 00 5a 5f 
   0.9987 1  048             Tx   d 7 84 00 00 00 00 55 e4 
   0.9989 1  041             Tx   d 6 84 fa 00 03 06 aa 
   0.9991 1  042             Tx   d 6 84 fa 00 03 06 a5 
   0.9971 1  CA              Rx   d 8 54 00 7F FE 01 44 70 00
   0.9973 1  CD              Rx   d 2 7E F4
   0.9975 1  153             Rx   d 6 3F 3F 00 01 00 FF
   0.9982 1  CB              Rx   d 8 54 00 80 00 01 44 70 00
   0.9983 1  CE              Rx   d 2 80 00
   0.9985 1  154             Rx   d 6 3F 3F 00 01 00 FF
   1.0083 1  047             Tx   d 7 c4 00 00 00 00 5a 0f 
   1.0085 1  048             Tx   d 7 c4 00 00 00 00 55 b4 
   1.0087 1  041             Tx   d 6 c4 fa 00 03 06 aa 
   1.0089 1  042             Tx   d 6 c4 fa 00 03 06 a5 
   1.0071 1  CA              Rx   d 8 54 00 7F FE 01 43 10 00
   1.0072 1  CD              Rx   d 2 7E F4
   1.0075 1  153             Rx   d 6 3F 3F 00 01 00 FF
   1.0081 1  CB              Rx   d 8 54 00 80 00 01 43 10 00
   1.0083 1  CE              Rx   d 2 80 00
   1.0085 1  154             Rx   d 6 3F 3F 00 01 00 FF
   1.0183 1  047             Tx   d 7 04 00 00 00 00 5a ff 
   1.0185 1  048             Tx   d 7 04 00 00 00 00 55 44 
   1.0187 1  041             Tx   d 6 04 fa 00 03 06 aa 
   1.0189 1  042             Tx   d 6 04 fa 00 03 06 a5 
   1.0171 1  CA              Rx   d 8 54 00 7F FE 01 42 30 00
   1.0172 1  CD              Rx   d 2 7E F4
   1.0174 1  153             Rx   d 6 3F 3F 00 01 00 FF
   1.0181 1  CB              Rx   d 8 54 00 80 00 01 43 30 00
   1.0183 1  CE              Rx   d 2 80 00
   1.0185 1  154             Rx   d 6 3F 3F 00 01 00 FF
   1.0286 1  047             Tx   d 7 44 00 00 00 00 5a af 
   1.0288 1  048             Tx   d 7 44 00 00 00 00 55 14 
   1.0290 1  041             Tx   d 6 44 fa 00 03 06 aa 
   1.0292 1  042             Tx   d 6 44 fa 00 03 06 a5 
   1.0271 1  CA              Rx   d 8 54 00 7F FE 01 41 50 00
   1.0273 1  CD              Rx   d 2 7E F4
   1.0275 1  153             Rx   d 6 3F 3F 00 01 00 FF
   1.0281 1  CB              Rx   d 8 54 00 80 00 01 42 50 00
   1.0283 1  CE              Rx   d 2 80 00
   1.0285 1  154             Rx   d 6 3F 3F 00 01 00 FF
   1.0386 1  047             Tx   d 7 84 00 00 00 00 5a 5f 
   1.0390 1  048             Tx   d 7 84 00 00 00 00 55 e4 
   1.0391 1  041             Tx   d 6 84 fa 00 03 06 aa 
   1.0393 1  042             Tx   d 6 84 fa 00 03 06 a5 
   1.0371 1  CA              Rx   d 8 54 00 7F FE 01 40 70 00
   1.0372 1  CD              Rx   d 2 7E F4
   1.0374 1  153             Rx   d 6 3F 3F 00 01 00 FF
   1.0381 1  CB              Rx   d 8 54 00 80 00 01 41 70 00
   1.0383 1  CE              Rx   d 2 80 00
   1.0385 1  154             Rx   d 6 3F 3F 00 01 00 FF
   1.0485 1  047             Tx   d 7 c4 00 00 00 00 5a 0f 
   1.0487 1  048             Tx   d 7 c4 00 00 00 00 55 b4 
   1.0489 1  041             Tx   d 6 c4 fa 00 03 06 aa 
   1.0491 1  042             Tx   d 6 c4 fa 00 03 06 a5 
   1.0471 1  CA              Rx   d 8 54 00 7F FE 01 40 10 00
   1.0473 1  CD              Rx   d 2 7E F4
   1.0474 1  153             Rx   d 6 3F 3F 00 01 00 FF
   1.0481 1  CB              Rx   d 8 54 00 80 00 01 40 10 00
   1.0483 1  CE              Rx   d 2 80 00
   1.0485 1  154             Rx   d 6 3F 3F 00 01 00 FF
   1.0590 1  047             Tx   d 7 04 00 00 00 00 5a ff 
   1.0592 1  048             Tx   d 7 04 00 00 00 00 55 44 
   1.0594 1  041             Tx   d 6 04 fa 00 03 06 aa 
   1.0595 1  042             Tx   d 6 04 fa 00 03 06 a5 
   1.0571 1  CA              Rx   d 8 54 00 7F FE 01 3F 30 00
   1.0572 1  CD              Rx   d 2 7E F4
   1.0575 1  153             Rx   d 6 3F 3F 00 01 00 FF
   1.0576 1  386             Rx   d 5 82 82 82 48 00
   1.0581 1  CB              Rx   d 8 54 00 80 00 01 40 30 00
   1.0583 1  CE              Rx   d 2 80 00
   1.0585 1  154             Rx   d 6 3F 3F 00 01 00 FF
   1.0587 1  387             Rx   d 5 82 82 82 48 00
   1.0685 1  047             Tx   d 7 44 00 00 00 00 5a af 
   1.0687 1  048             Tx   d 7 44 00 00 00 00 55 14 
   1.0689 1  041             Tx   d 6 44 fa 00 03 06 aa 
   1.0690 1  042             Tx   d 6 44 fa 00 03 06 a5 
   1.0671 1  CA              Rx   d 8 54 00 7F FE 01 3E 50 00
   1.0672 1  CD              Rx   d 2 7E F4
   1.0674 1  153             Rx   d 6 3F 3F 00 01 00 FF
   1.0681 1  CB              Rx   d 8 54 00 80 00 01 3F 50 00
   1.0683 1  CE              Rx   d 2 80 00
   1.0685 1  154             Rx   d 6 3F 3F 00 01 00 FF
   1.0780 1  047             Tx   d 7 84 00 00 00 00 5a 5f 
   1.0782 1  048             Tx   d 7 84 00 00 00 00 55 e4 
   1.0784 1  041             Tx   d 6 84 fa 00 03 06 aa 
   1.0785 1  042             Tx   d 6 84 fa 00 03 06 a5 
   1.0771 1  CA              Rx   d 8 54 00 7F FE 01 3D 70 00
   1.0773 1  CD              Rx   d 2 7E F4
   1.0774 1  153             Rx   d 6 3F 3F 00 01 00 FF
   1.0782 1  CB              Rx   d 8 54 00 80 00 01 3E 70 00
   1.0783 1  CE              Rx   d 2 80 00
   1.0785 1  154             Rx   d 6 3F 3F 00 01 00 FF
   1.0884 1  047             Tx   d 7 c4 00 00 00 00 5a 0f 
   1.0886 1  048             Tx   d 7 c4 00 00 00 00 55 b4 
   1.0888 1  041             Tx   d 6 c4 fa 00 03 06 aa 
   1.0889 1  042             Tx   d 6 c4 fa 00 03 06 a5 
   1.0871 1  CA              Rx   d 8 54 00 7F FE 01 3C 10 00
   1.0872 1  CD              Rx   d 2 7E F4
   1.0875 1  153             Rx   d 6 3F 3F 00 01 00 FF
   1.0881 1  CB              Rx   d 8 54 00 80 00 01 3D 10 00
   1.0883 1  CE              Rx   d 2 80 00
   1.0885 1  154             Rx   d 6 3F 3F 00 01 00 FF
   1.0984 1  047             Tx   d 7 04 00 00 00 00 5a ff 
   1.0986 1  048             Tx   d 7 04 00 00 00 00 55 44 
   1.0988 1  041             Tx   d 6 04 fa 00 03 06 aa 
   1.0990 1  042             Tx   d 6 04 fa 00 03 06 a5 
   1.0971 1  CA              Rx   d 8 54 00 7F FE 01 3C 30 00
   1.0972 1  CD              Rx   d 2 7E F4
   1.0974 1  153             Rx   d 6 3F 3F 00 01 00 FF
   1.0981 1  CB              Rx   d 8 54 00 80 00 01 3C 30 00
   1.0982 1  CE              Rx   d 2 80 00
   1.0985 1  154             Rx   d 6 3F 3F 00 01 00 FF
   1.1081 1  047             Tx   d 7 44 00 00 00 00 5a af 
   1.1083 1  048             Tx   d 7 44 00 00 00 00 55 14 
   1.1085 1  041             Tx   d 6 44 fa 00 03 06 aa 
   1.1087 1  042             Tx   d 6 44 fa 00 03 06 a5 
   1.1071 1  CA              Rx   d 8 54 00 7F FE 01 3B 50 00
   1.1073 1  CD              Rx   d 2 7E F4
   1.1075 1  153             Rx   d 6 3F 3F 00 01 00 FF
   1.1081 1  CB              Rx   d 8 54 00 80 00 01 3B 50 00
   1.1083 1  CE              Rx   d 2 80 00
   1.1085 1  154             Rx   d 6 3F 3F 00 01 00 FF
   1.1180 1  047             Tx   d 7 84 00 00 00 00 5a 5f 
   1.1182 1  048             Tx   d 7 84 00 00 00 00 55 e4 
   1.1183 1  041             Tx   d 6 84 fa 00 03 06 aa 
   1.1185 1  042             Tx   d 6 84 fa 00 03 06 a5 
   1.1171 1  CA              Rx   d 8 54 00 7F FE 01 3A 70 00
   1.1172 1  CD              Rx   d 2 7E F4
   1.1174 1  153             Rx   d 6 3F 3F 00 01 00 FF
   1.1181 1  CB              Rx   d 8 54 00 80 00 01 3B 70 00
   1.1183 1  CE              Rx   d 2 80 00
   1.1185 1  154             Rx   d 6 3F 3F 00 01 00 FF
   1.1279 1  047             Tx   d 7 c4 00 00 00 00 5a 0f 
   1.1281 1  048             Tx   d 7 c4 00 00 00 00 55 b4 
   1.1283 1  041             Tx   d 6 c4 fa 00 03 06 aa 
   1.1285 1  042             Tx   d 6 c4 fa 00 03 06 a5 
   1.1271 1  CA              Rx   d 8 54 00 7F FE 01 39 10 00
   1.1272 1  CD              Rx   d 2 7E F4
   1.1274 1  153             Rx   d 6 3F 3F 00 01 00 FF
   1.1281 1  CB              Rx   d 8 54 00 80 00 01 3A 10 00
   1.1283 1  CE              Rx   d 2 80 00
   1.1285 1  154             Rx   d 6 3F 3F 00 01 00 FF
   1.1384 1  047             Tx   d 7 04 00 00 00 00 5a ff 
   1.1387 1  048             Tx   d 7 04 00 00 00 00 55 44 
   1.1390 1  041             Tx   d 6 04 fa 00 03 06 aa 
   1.1391 1  042             Tx   d 6 04 fa 00 03 06 a5 
   1.1371 1  CA              Rx   d 8 54 00 7F FE 01 39 30 00
   1.1372 1  CD              Rx   d 2 7E F4
   1.1375 1  153             Rx   d 6 3F 3F 00 01 00 FF
   1.1381 1  CB              Rx   d 8 54 00 80 00 01 39 30 00
   1.1383 1  CE              Rx   d 2 80 00
   1.1385 1  154             Rx   d 6 3F 3F 00 01 00 FF
   1.1484 1  047             Tx   d 7 44 00 00 00 00 5a af 
   1.1486 1  048             Tx   d 7 44 00 00 00 00 55 14 
   1.1487 1  041             Tx   d 6 44 fa 00 03 06 aa 
   1.1489 1  042             Tx   d 6 44 fa 00 03 06 a5 
   1.1471 1  CA              Rx   d 8 54 00 7F FE 01 38 50 00
   1.1472 1  CD              Rx   d 2 7E F4
   1.1474 1  153             Rx   d 6 3F 3F 00 01 00 FF
   1.1481 1  CB              Rx   d 8 54 00 80 00 01 39 50 00
   1.1483 1  CE              Rx   d 2 80 00
   1.1485 1  154             Rx   d 6 3F 3F 00 01 00 FF
   1.1588 1  047             Tx   d 7 84 00 00 00 00 5a 5f 
   1.1590 1  048             Tx   d 7 84 00 00 00 00 55 e4 
   1.1592 1  041             Tx   d 6 84 fa 00 03 06 aa 
   1.1593 1  042             Tx   d 6 84 fa 00 03 06 a5 
   1.1571 1  CA              Rx   d 8 54 00 7F FE 01 37 70 00
   1.1573 1  CD              Rx   d 2 7E F4
   1.1575 1  153             Rx   d 6 3F 3F 00 01 00 FF
   1.1576 1  386             Rx   d 5 8A 8A 88 49 00
   1.1579 1  684             Rx   d 8 00 00 00 00 00 00 00 00
   1.1582 1  CB              Rx   d 8 54 00 80 00 01 38 70 00
   1.1583 1  CE              Rx   d 2 80 00
   1.1585 1  154             Rx   d 6 3F 3F 00 01 00 FF
   1.1587 1  387             Rx   d 5 8A 8A 88 49 00
   1.1589 1  685             Rx   d 8 00 00 00 00 00 00 00 00
   1.1691 1  047             Tx   d 7 c4 00 00 00 00 5a 0f 
   1.1693 1  048             Tx   d 7 c4 00 00 00 00 55 b4 
   1.1695 1  041             Tx   d 6 c4 fa 00 03 06 aa 
   1.1697 1  042             Tx   d 6 c4 fa 00 03 06 a5 
   1.1671 1  CA              Rx   d 8 54 00 7F FE 01 36 10 00
   1.1672 1  CD              Rx   d 2 7E F4
   1.1675 1  153             Rx   d 6 3F 3F 00 01 00 FF
   1.1681 1  CB              Rx   d 8 54 00 80 00 01 37 10 00
   1.1683 1  CE              Rx   d 2 80 00
   1.1685 1  154             Rx   d 6 3F 3F 00 01 00 FF
   1.1786 1  047             Tx   d 7 04 00 00 00 00 5a ff 
   1.1788 1  048             Tx   d 7 04 00 00 00 00 55 44 
   1.1790 1  041             Tx   d 6 04 fa 00 03 06 aa 
   1.1791 1  042             Tx   d 6 04 fa 00 03 06 a5 
   1.1771 1  CA              Rx   d 8 54 00 7F FE 01 36 30 00
   1.1772 1  CD              Rx   d 2 7E F4
   1.1774 1  153             Rx   d 6 3F 3F 00 01 00 FF
   1.1781 1  CB              Rx   d 8 54 00 80 00 01 36 30 00
   1.1782 1  CE              Rx   d 2 80 00
   1.1785 1  154             Rx   d 6 3F 3F 00 01 00 FF
   1.1882 1  047             Tx   d 7 44 00 00 00 00 5a af 
   1.1887 1  048             Tx   d 7 44 00 00 00 00 55 14 
   1.1889 1  041             Tx   d 6 44 fa 00 03 06 aa 
   1.1890 1  042             Tx   d 6 44 fa 00 03 06 a5 
   1.1871 1  CA              Rx   d 8 54 00 7F FE 01 35 50 00
   1.1873 1  CD              Rx   d 2 7E F4
   1.1875 1  153             Rx   d 6 3F 3F 00 01 00 FF
   1.1881 1  CB              Rx   d 8 54 00 80 00 01 35 50 00
   1.1883 1  CE              Rx   d 2 80 00
   1.1885 1  154             Rx   d 6 3F 3F 00 01 00 FF
   1.1980 1  047             Tx   d 7 84 00 00 00 00 5a 5f 
   1.1982 1  048             Tx   d 7 84 00 00 00 00 55 e4 
   1.1984 1  041             Tx   d 6 84 fa 00 03 06 aa 
   1.1985 1  042             Tx   d 6 84 fa 00 03 06 a5 
   1.1971 1  CA              Rx   d 8 54 00 7F FE 01 34 70 00
   1.1972 1  CD              Rx   d 2 7E F4
   1.1974 1  153             Rx   d 6 3F 3F 00 01 00 FF
   1.1981 1  CB              Rx   d 8 54 00 80 00 01 35 70 00
   1.1983 1  CE              Rx   d 2 80 00
   1.1985 1  154             Rx   d 6 3F 3F 00 01 00 FF
   1.2085 1  047             Tx   d 7 c4 00 00 00 00 5a 0f 
   1.2087 1  048             Tx   d 7 c4 00 00 00 00 55 b4 
   1.2088 1  041             Tx   d 6 c4 fa 00 03 06 aa 
   1.2090 1  042             Tx   d 6 c4 fa 00 03 06 a5 
   1.2071 1  CA              Rx   d 8 54 00 7F FE 01 33 10 00
   1.2072 1  CD              Rx   d 2 7E F4
   1.2074 1  153             Rx   d 6 3F 3F 00 01 00 FF
   1.2081 1  CB              Rx   d 8 54 00 80 00 01 34 10 00
   1.2083 1  CE              Rx   d 2 80 00
   1.2085 1  154             Rx   d 6 3F 3F 00 01 00 FF
   1.2182 1  047             Tx   d 7 04 00 00 00 00 5a ff 
   1.2184 1  048             Tx   d 7 04 00 00 00 00 55 44 
   1.2186 1  041             Tx   d 6 04 fa 00 03 06 aa 
   1.2187 1  042             Tx   d 6 04 fa 00 03 06 a5 
   1.2171 1  CA              Rx   d 8 54 00 7F FE 01 33 30 00
   1.2172 1  CD              Rx   d 2 7E F4
   1.2175 1  153             Rx   d 6 3F 3F 00 01 00 FF
   1.2181 1  CB              Rx   d 8 54 00 80 00 01 33 30 00
   1.2183 1  CE              Rx   d 2 80 00
   1.2185 1  154             Rx   d 6 3F 3F 00 01 00 FF
   1.2282 1  047             Tx   d 7 44 00 00 00 00 5a af 
   1.2284 1  048             Tx   d 7 44 00 00 00 00 55 14 
   1.2285 1  041             Tx   d 6 44 fa 00 03 06 aa 
   1.2287 1  042             Tx   d 6 44 fa 00 03 06 a5 
   1.2271 1  CA              Rx   d 8 54 00 7F FE 01 32 50 00
   1.2272 1  CD              Rx   d 2 7E F4
   1.2274 1  153             Rx   d 6 3F 3F 00 01 00 FF
   1.2281 1  CB              Rx   d 8 54 00 80 00 01 32 50 00
   1.2283 1  CE              Rx   d 2 80 00
   1.2285 1  154             Rx   d 6 3F 3F 00 01 00 FF
   1.2384 1  047             Tx   d 7 84 00 00 00 00 5a 5f 
   1.2386 1  048             Tx   d 7 84 00 00 00 00 55 e4 
   1.2388 1  041             Tx   d 6 84 fa 00 03 06 aa 
   1.2389 1  042             Tx   d 6 84 fa 00 03 06 a5 
   1.2371 1  CA              Rx   d 8 54 00 7F FE 01 31 70 00
   1.2373 1  CD              Rx   d 2 7E F4
   1.2374 1  153             Rx   d 6 3F 3F 00 01 00 FF
   1.2381 1  CB              Rx   d 8 54 00 80 00 01 31 70 00
   1.2383 1  CE              Rx   d 2 80 00
   1.2385 1  154             Rx   d 6 3F 3F 00 01 00 FF
   1.2480 1  047             Tx   d 7 c4 00 00 00 00 5a 0f 
   1.2481 1  048             Tx   d 7 c4 00 00 00 00 55 b4 
   1.2483 1  041             Tx   d 6 c4 fa 00 03 06 aa 
   1.2485 1  042             Tx   d 6 c4 fa 00 03 06 a5 
   1.2471 1  CA              Rx   d 8 54 00 7F FE 01 30 10 00
   1.2472 1  CD              Rx   d 2 7E F4
   1.2475 1  153             Rx   d 6 3F 3F 00 01 00 FF
   1.2481 1  CB              Rx   d 8 54 00 80 00 01 31 10 00
   1.2483 1  CE              Rx   d 2 80 00
   1.2485 1  154             Rx   d 6 3F 3F 00 01 00 FF
   1.2585 1  047             Tx   d 7 04 00 00 00 00 5a ff 
   1.2589 1  048             Tx   d 7 04 00 00 00 00 55 44 
   1.2591 1  041             Tx   d 6 04 fa 00 03 06 aa 
   1.2593 1  042             Tx   d 6 04 fa 00 03 06 a5 
   1.2571 1  CA              Rx   d 8 54 00 7F FE 01 30 30 00
   1.2572 1  CD              Rx   d 2 7E F4
   1.2574 1  153             Rx   d 6 3F 3F 00 01 00 FF
   1.2576 1  386             Rx   d 5 93 92 90 4A 00
   1.2581 1  CB              Rx   d 8 54 00 80 00 01 30 30 00
   1.2582 1  CE              Rx   d 2 80 00
   1.2585 1  154             Rx   d 6 3F 3F 00 01 00 FF
   1.2587 1  387             Rx   d 5 93 92 90 4A 00
   1.2689 1  047             Tx   d 7 44 00 00 00 00 5a af 
   1.2691 1  048             Tx   d 7 44 00 00 00 00 55 14 
   1.2693 1  041             Tx   d 6 44 fa 00 03 06 aa 
   1.2694 1  042             Tx   d 6 44 fa 00 03 06 a5 
   1.2671 1  CA              Rx   d 8 54 00 7F FE 01 2F 50 00
   1.2673 1  CD              Rx   d 2 7E F4
   1.2675 1  153             Rx   d 6 3F 3F 00 01 00 FF
   1.2681 1  CB              Rx   d 8 54 00 80 00 01 2F 50 00
   1.2683 1  CE              Rx   d 2 80 00
   1.2685 1  154             Rx   d 6 3F 3F 00 01 00 FF
   1.2783 1  047             Tx   d 7 84 00 00 00 00 5a 5f 
   1.2785 1  048             Tx   d 7 84 00 00 00 00 55 e4 
   1.2787 1  041             Tx   d 6 84 fa 00 03 06 aa 
   1.2789 1  042             Tx   d 6 84 fa 00 03 06 a5 
   1.2771 1  CA              Rx   d 8 54 00 7F FE 01 2E 70 00
   1.2772 1  CD              Rx   d 2 7E F4
   1.2774 1  153             Rx   d 6 3F 3F 00 01 00 FF
   1.2781 1  CB              Rx   d 8 54 00 80 00 01 2E 70 00
   1.2783 1  CE              Rx   d 2 80 00
   1.2785 1  154             Rx   d 6 3F 3F 00 01 00 FF
   1.2883 1  047             Tx   d 7 c4 00 00 00 00 5a 0f 
   1.2886 1  048             Tx   d 7 c4 00 00 00 00 55 b4 
   1.2887 1  041             Tx   d 6 c4 fa 00 03 06 aa 
   1.2889 1  042             Tx   d 6 c4 fa 00 03 06 a5 
   1.2871 1  CA              Rx   d 8 54 00 7F FE 01 2D 10 00
   1.2872 1  CD              Rx   d 2 7E F4
   1.2874 1  153             Rx   d 6 3F 3F 00 01 00 FF
   1.2881 1  CB              Rx   d 8 54 00 80 00 01 2D 10 00
   1.2882 1  CE              Rx   d 2 80 00
   1.2885 1  154             Rx   d 6 3F 3F 00 01 00 FF
   1.2980 1  047             Tx   d 7 04 00 00 00 00 5a ff 
   1.2982 1  048             Tx   d 7 04 00 00 00 00 55 44 
   1.2983 1  041             Tx   d 6 04 fa 00 03 06 aa 
   1.2985 1  042             Tx   d 6 04 fa 00 03 06 a5 
   1.2971 1  CA              Rx   d 8 54 00 7F FE 01 2C 30 00
   1.2972 1  CD              Rx   d 2 7E F4
   1.2975 1  153             Rx   d 6 3F 3F 00 01 00 FF
   1.2981 1  CB              Rx   d 8 54 00 80 00 01 2C 30 00
   1.2983 1  CE              Rx   d 2 80 00
   1.2985 1  154             Rx   d 6 3F 3F 00 01 00 FF
   1.3083 1  047             Tx   d 7 44 00 00 00 00 5a af 
   1.3088 1  048             Tx   d 7 44 00 00 00 00 55 14 
   1.3090 1  041             Tx   d 6 44 fa 00 03 06 aa 
   1.3092 1  042             Tx   d 6 44 fa 00 03 06 a5 
   1.3071 1  CA              Rx   d 8 54 00 7F FE 01 2B 50 00
   1.3072 1  CD              Rx   d 2 7E F4
   1.3074 1  153             Rx   d 6 3F 3F 00 01 00 FF
   1.3081 1  CB              Rx   d 8 54 00 80 00 01 2C 50 00
   1.3083 1  CE              Rx   d 2 80 00
   1.3085 1  154             Rx   d 6 3F 3F 00 01 00 FF
   1.3183 1  047             Tx   d 7 84 00 00 00 00 5a 5f 
   1.3185 1  048             Tx   d 7 84 00 00 00 00 55 e4 
   1.3187 1  041             Tx   d 6 84 fa 00 03 06 aa 
   1.3188 1  042             Tx   d 6 84 fa 00 03 06 a5 
   1.3171 1  CA              Rx   d 8 54 00 7F FE 01 2B 70 00
   1.3173 1  CD              Rx   d 2 7E F4
   1.3174 1  153             Rx   d 6 3F 3F 00 01 00 FF
   1.3181 1  CB              Rx   d 8 54 00 80 00 01 2B 70 00
   1.3183 1  CE              Rx   d 2 80 00
   1.3185 1  154             Rx   d 6 3F 3F 00 01 00 FF
   1.3282 1  047             Tx   d 7 c4 00 00 00 00 5a 0f 
   1.3284 1  048             Tx   d 7 c4 00 00 00 00 55 b4 
   1.3285 1  041             Tx   d 6 c4 fa 00 03 06 aa 
   1.3287 1  042             Tx   d 6 c4 fa 00 03 06 a5 
   1.3271 1  CA              Rx   d 8 54 00 7F FE 01 2A 10 00
   1.3272 1  CD              Rx   d 2 7E F4
   1.3275 1  153             Rx   d 6 3F 3F 00 01 00 FF
   1.3281 1  CB              Rx   d 8 54 00 80 00 01 2A 10 00
   1.3283 1  CE              Rx   d 2 80 00
   1.3285 1  154             Rx   d 6 3F 3F 00 01 00 FF
   1.3387 1  047             Tx   d 7 04 00 00 00 00 5a ff 
   1.3389 1  048             Tx   d 7 04 00 00 00 00 55 44 
   1.3390 1  041             Tx   d 6 04 fa 00 03 06 aa 
   1.3392 1  042             Tx   d 6 04 fa 00 03 06 a5 
   1.3371 1  CA              Rx   d 8 54 00 7F FE 01 29 30 00
   1.3372 1  CD              Rx   d 2 7E F4
   1.3374 1  153             Rx   d 6 3F 3F 00 01 00 FF
   1.3381 1  CB              Rx   d 8 54 00 80 00 01 29 30 00
   1.3382 1  CE              Rx   d 2 80 00
   1.3385 1  154             Rx   d 6 3F 3F 00 01 00 FF
   1.3481 1  047             Tx   d 7 44 00 00 00 00 5a af 
   1.3483 1  048             Tx   d 7 44 00 00 00 00 55 14 
   1.3485 1  041             Tx   d 6 44 fa 00 03 06 aa 
   1.3487 1  042             Tx   d 6 44 fa 00 03 06 a5 
   1.3471 1  CA              Rx   d 8 54 00 7F FE 01 28 50 00
   1.3473 1  CD              Rx   d 2 7E F4
   1.3475 1  153             Rx   d 6 3F 3F 00 01 00 FF
   1.3481 1  CB              Rx   d 8 54 00 80 00 01 28 50 00
   1.3581 1  047             Tx   d 7 84 00 00 00 00 5a 5f 
   1.3483 1  CE              Rx   d 2 80 00
   1.3485 1  154             Rx   d 6 3F 3F 00 01 00 FF
   1.3591 1  048             Tx   d 7 84 00 00 00 00 55 e4 
   1.3593 1  041             Tx   d 6 84 fa 00 03 06 aa 
   1.3595 1  042             Tx   d 6 84 fa 00 03 06 a5 
   1.3571 1  CA              Rx   d 8 54 00 7F FE 01 27 70 00
   1.3572 1  CD              Rx   d 2 7E F4
   1.3574 1  153             Rx   d 6 3F 3F 00 01 00 FF
   1.3576 1  386             Rx   d 5 9A 98 98 4B 00
   1.3581 1  CB              Rx   d 8 54 00 80 00 01 28 70 00
   1.3583 1  CE              Rx   d 2 80 00
   1.3585 1  154             Rx   d 6 3F 3F 00 01 00 FF
   1.3586 1  387             Rx   d 5 9A 98 98 4B 00
   1.3684 1  047             Tx   d 7 c4 00 00 00 00 5a 0f 
   1.3686 1  048             Tx   d 7 c4 00 00 00 00 55 b4 
   1.3687 1  041             Tx   d 6 c4 fa 00 03 06 aa 
   1.3689 1  042             Tx   d 6 c4 fa 00 03 06 a5 
   1.3671 1  CA              Rx   d 8 54 00 7F FE 01 27 10 00
   1.3672 1  CD              Rx   d 2 7E F4
   1.3674 1  153             Rx   d 6 3F 3F 00 01 00 FF
   1.3681 1  CB              Rx   d 8 54 00 80 00 01 27 10 00
   1.3682 1  CE              Rx   d 2 80 00
   1.3685 1  154             Rx   d 6 3F 3F 00 01 00 FF
   1.3783 1  047             Tx   d 7 04 00 00 00 00 5a ff 
   1.3785 1  048             Tx   d 7 04 00 00 00 00 55 44 
   1.3787 1  041             Tx   d 6 04 fa 00 03 06 aa 
   1.3788 1  042             Tx   d 6 04 fa 00 03 06 a5 
   1.3771 1  CA              Rx   d 8 54 00 7F FE 01 26 30 00
   1.3772 1  CD              Rx   d 2 7E F4
   1.3775 1  153             Rx   d 6 3F 3F 00 01 00 FF
   1.3781 1  CB              Rx   d 8 54 00 80 00 01 26 30 00
   1.3783 1  CE              Rx   d 2 80 00
   1.3785 1  154             Rx   d 6 3F 3F 00 01 00 FF
   1.3885 1  047             Tx   d 7 44 00 00 00 00 5a af 
   1.3887 1  048             Tx   d 7 44 00 00 00 00 55 14 
   1.3889 1  041             Tx   d 6 44 fa 00 03 06 aa 
   1.3890 1  042             Tx   d 6 44 fa 00 03 06 a5 
   1.3871 1  CA              Rx   d 8 54 00 7F FE 01 25 50 00
   1.3872 1  CD              Rx   d 2 7E F4
   1.3874 1  153             Rx   d 6 3F 3F 00 01 00 FF
   1.3881 1  CB              Rx   d 8 54 00 80 00 01 26 50 00
   1.3883 1  CE              Rx   d 2 80 00
   1.3885 1  154             Rx   d 6 3F 3F 00 01 00 FF
   1.3981 1  047             Tx   d 7 84 00 00 00 00 5a 5f 
   1.3983 1  048             Tx   d 7 84 00 00 00 00 55 e4 
   1.3984 1  041             Tx   d 6 84 fa 00 03 06 aa 
   1.3986 1  042             Tx   d 6 84 fa 00 03 06 a5 
   1.3971 1  CA              Rx   d 8 54 00 7F FE 01 24 70 00
   1.3973 1  CD              Rx   d 2 7E F4
   1.3974 1  153             Rx   d 6 3F 3F 00 01 00 FF
   1.3981 1  CB              Rx   d 8 54 00 80 00 01 25 70 00
   1.3983 1  CE              Rx   d 2 80 00
   1.3985 1  154             Rx   d 6 3F 3F 00 01 00 FF
   1.4084 1  047             Tx   d 7 c4 00 00 00 00 5a 0f 
   1.4086 1  048             Tx   d 7 c4 00 00 00 00 55 b4 
   1.4087 1  041             Tx   d 6 c4 fa 00 03 06 aa 
   1.4089 1  042             Tx   d 6 c4 fa 00 03 06 a5 
   1.4071 1  CA              Rx   d 8 54 00 7F FE 01 23 10 00
   1.4072 1  CD              Rx   d 2 7E F4
   1.4075 1  153             Rx   d 6 3F 3F 00 01 00 FF
   1.4081 1  CB              Rx   d 8 54 00 80 00 01 24 10 00
   1.4083 1  CE              Rx   d 2 80 00
   1.4085 1  154             Rx   d 6 3F 3F 00 01 00 FF
   1.4179 1  047             Tx   d 7 04 00 00 00 00 5a ff 
   1.4181 1  048             Tx   d 7 04 00 00 00 00 55 44 
   1.4182 1  041             Tx   d 6 04 fa 00 03 06 aa 
   1.4184 1  042             Tx   d 6 04 fa 00 03 06 a5 
   1.4171 1  CA              Rx   d 8 54 00 7F FE 01 23 30 00
   1.4172 1  CD              Rx   d 2 7E F4
   1.4174 1  153             Rx   d 6 3F 3F 00 01 00 FF
   1.4181 1  CB              Rx   d 8 54 00 80 00 01 23 30 00
   1.4182 1  CE              Rx   d 2 80 00
   1.4185 1  154             Rx   d 6 3F 3F 00 01 00 FF
   1.4281 1  047             Tx   d 7 44 00 00 00 00 5a af 
   1.4283 1  048             Tx   d 7 44 00 00 00 00 55 14 
   1.4285 1  041             Tx   d 6 44 fa 00 03 06 aa 
   1.4287 1  042             Tx   d 6 44 fa 00 03 06 a5 
   1.4271 1  CA              Rx   d 8 54 00 7F FE 01 22 50 00
   1.4273 1  CD              Rx   d 2 7E F4
   1.4275 1  153             Rx   d 6 3F 3F 00 01 00 FF
   1.4281 1  CB              Rx   d 8 54 00 80 00 01 22 50 00
   1.4283 1  CE              Rx   d 2 80 00
   1.4285 1  154             Rx   d 6 3F 3F 00 01 00 FF
   1.4383 1  047             Tx   d 7 84 00 00 00 00 5a 5f 
   1.4385 1  048             Tx   d 7 84 00 00 00 00 55 e4 
   1.4387 1  041             Tx   d 6 84 fa 00 03 06 aa 
   1.4389 1  042             Tx   d 6 84 fa 00 03 06 a5 
   1.4371 1  CA              Rx   d 8 54 00 7F FE 01 21 70 00
   1.4372 1  CD              Rx   d 2 7E F4
   1.4374 1  153             Rx   d 6 3F 3F 00 01 00 FF
   1.4381 1  CB              Rx   d 8 54 00 80 00 01 22 70 00
   1.4383 1  CE              Rx   d 2 80 00
   1.4385 1  154             Rx   d 6 3F 3F 00 01 00 FF
   1.4485 1  047             Tx   d 7 c4 00 00 00 00 5a 0f 
   1.4487 1  048             Tx   d 7 c4 00 00 00 00 55 b4 
   1.4488 1  041             Tx   d 6 c4 fa 00 03 06 aa 
   1.4490 1  042             Tx   d 6 c4 fa 00 03 06 a5 
   1.4471 1  CA              Rx   d 8 54 00 7F FE 01 20 10 00
   1.4472 1  CD              Rx   d 2 7E F4
   1.4474 1  153             Rx   d 6 3F 3F 00 01 00 FF
   1.4481 1  CB              Rx   d 8 54 00 80 00 01 20 10 00
   1.4482 1  CE              Rx   d 2 80 00
   1.4485 1  154             Rx   d 6 3F 3F 00 01 00 FF
   1.4586 1  047             Tx   d 7 04 00 00 00 00 5a ff 
   1.4588 1  048             Tx   d 7 04 00 00 00 00 55 44 
   1.4590 1  041             Tx   d 6 04 fa 00 03 06 aa 
   1.4591 1  042             Tx   d 6 04 fa 00 03 06 a5 
   1.4571 1  CA              Rx   d 8 54 00 7F FE 01 20 30 00
   1.4572 1  CD              Rx   d 2 7E F4
   1.4575 1  153             Rx   d 6 3F 3F 00 01 00 FF
   1.4576 1  386             Rx   d 5 A2 A2 A0 4C 00
   1.4581 1  CB              Rx   d 8 54 00 80 00 01 20 30 00
   1.4583 1  CE              Rx   d 2 80 00
   1.4585 1  154             Rx   d 6 3F 3F 00 01 00 FF
   1.4587 1  387             Rx   d 5 A2 A2 A0 4C 00
   1.4684 1  047             Tx   d 7 44 00 00 00 00 5a af 
   1.4686 1  048             Tx   d 7 44 00 00 00 00 55 14 
   1.4688 1  041             Tx   d 6 44 fa 00 03 06 aa 
   1.4690 1  042             Tx   d 6 44 fa 00 03 06 a5 
   1.4671 1  CA              Rx   d 8 54 00 7F FE 01 1F 50 00
   1.4785 1  047             Tx   d 7 84 00 00 00 00 5a 5f 
   1.4672 1  CD              Rx   d 2 7E F4
   1.4674 1  153             Rx   d 6 3F 3F 00 01 00 FF
   1.4681 1  CB              Rx   d 8 54 00 80 00 01 1F 50 00
   1.4799 1  048             Tx   d 7 84 00 00 00 00 55 e4 
   1.4683 1  CE              Rx   d 2 80 00
   1.4685 1  154             Rx   d 6 3F 3F 00 01 00 FF
   1.4809 1  041             Tx   d 6 84 fa 00 03 06 aa 
   1.4811 1  042             Tx   d 6 84 fa 00 03 06 a5 
   1.4771 1  CA              Rx   d 8 54 00 7F FE 01 1E 70 00
   1.4773 1  CD              Rx   d 2 7E F4
   1.4774 1  153             Rx   d 6 3F 3F 00 01 00 FF
   1.4781 1  CB              Rx   d 8 54 00 80 00 01 1E 70 00
   1.4783 1  CE              Rx   d 2 80 00
   1.4785 1  154             Rx   d 6 3F 3F 00 01 00 FF
   1.4901 1  047             Tx   d 7 c4 00 00 00 00 5a 0f 
   1.4903 1  048             Tx   d 7 c4 00 00 00 00 55 b4 
   1.4904 1  041             Tx   d 6 c4 fa 00 03 06 aa 
   1.4906 1  042             Tx   d 6 c4 fa 00 03 06 a5 
   1.4871 1  CA              Rx   d 8 54 00 7F FE 01 1D 10 00
   1.4872 1  CD              Rx   d 2 7E F4
   1.4875 1  153             Rx   d 6 3F 3F 00 01 00 FF
   1.4881 1  CB              Rx   d 8 54 00 80 00 01 1D 10 00
   1.4883 1  CE              Rx   d 2 80 00
   1.4885 1  154             Rx   d 6 3F 3F 00 01 00 FF
   1.4995 1  047             Tx   d 7 04 00 00 00 00 5a ff 
   1.4997 1  048             Tx   d 7 04 00 00 00 00 55 44 
   1.4999 1  041             Tx   d 6 04 fa 00 03 06 aa 
   1.5000 1  042             Tx   d 6 04 fa 00 03 06 a5 
   1.4971 1  CA              Rx   d 8 54 00 7F FE 01 1C 30 00
   1.4972 1  CD              Rx   d 2 7E F4
   1.4974 1  153             Rx   d 6 3F 3F 00 01 00 FF
   1.4981 1  CB              Rx   d 8 54 00 80 00 01 1D 30 00
   1.4982 1  CE              Rx   d 2 80 00
   1.4985 1  154             Rx   d 6 3F 3F 00 01 00 FF
   1.5090 1  047             Tx   d 7 44 00 00 00 00 5a af 
   1.5092 1  048             Tx   d 7 44 00 00 00 00 55 14 
   1.5093 1  041             Tx   d 6 44 fa 00 03 06 aa 
   1.5095 1  042             Tx   d 6 44 fa 00 03 06 a5 
   1.5071 1  CA              Rx   d 8 54 00 7F FE 01 1C 50 00
   1.5073 1  CD              Rx   d 2 7E F4
   1.5075 1  153             Rx   d 6 3F 3F 00 01 00 FF
   1.5081 1  CB              Rx   d 8 54 00 80 00 01 1C 50 00
   1.5083 1  CE              Rx   d 2 80 00
   1.5084 1  154             Rx   d 6 3F 3F 00 01 00 FF
   1.5184 1  047             Tx   d 7 84 00 00 00 00 5a 5f 
   1.5186 1  048             Tx   d 7 84 00 00 00 00 55 e4 
   1.5188 1  041             Tx   d 6 84 fa 00 03 06 aa 
   1.5190 1  042             Tx   d 6 84 fa 00 03 06 a5 
   1.5171 1  CA              Rx   d 8 54 00 7F FE 01 1B 70 00
   1.5172 1  CD              Rx   d 2 7E F4
   1.5174 1  153             Rx   d 6 3F 3F 00 01 00 FF
   1.5181 1  CB              Rx   d 8 54 00 80 00 01 1B 70 00
   1.5183 1  CE              Rx   d 2 80 00
   1.5185 1  154             Rx   d 6 3F 3F 00 01 00 FF
   1.5279 1  047             Tx   d 7 c4 00 00 00 00 5a 0f 
   1.5281 1  048             Tx   d 7 c4 00 00 00 00 55 b4 
   1.5283 1  041             Tx   d 6 c4 fa 00 03 06 aa 
   1.5284 1  042             Tx   d 6 c4 fa 00 03 06 a5 
   1.5271 1  CA              Rx   d 8 54 00 7F FE 01 1A 10 00
   1.5272 1  CD              Rx   d 2 7E F4
   1.5274 1  153             Rx   d 6 3F 3F 00 01 00 FF
   1.5281 1  CB              Rx   d 8 54 00 80 00 01 1A 10 00
   1.5282 1  CE              Rx   d 2 80 00
   1.5285 1  154             Rx   d 6 3F 3F 00 01 00 FF
   1.5383 1  047             Tx   d 7 04 00 00 00 00 5a ff 
   1.5388 1  048             Tx   d 7 04 00 00 00 00 55 44 
   1.5390 1  041             Tx   d 6 04 fa 00 03 06 aa 
   1.5392 1  042             Tx   d 6 04 fa 00 03 06 a5 
   1.5371 1  CA              Rx   d 8 54 00 7F FE 01 19 30 00
   1.5372 1  CD              Rx   d 2 7E F4
   1.5375 1  153             Rx   d 6 3F 3F 00 01 00 FF
   1.5381 1  CB              Rx   d 8 54 00 80 00 01 19 30 00
   1.5383 1  CE              Rx   d 2 80 00
   1.5385 1  154             Rx   d 6 3F 3F 00 01 00 FF
   1.5483 1  047             Tx   d 7 44 00 00 00 00 5a af 
   1.5485 1  048             Tx   d 7 44 00 00 00 00 55 14 
   1.5486 1  041             Tx   d 6 44 fa 00 03 06 aa 
   1.5488 1  042             Tx   d 6 44 fa 00 03 06 a5 
   1.5471 1  CA              Rx   d 8 54 00 7F FE 01 19 50 00
   1.5472 1  CD              Rx   d 2 7E F4
   1.5474 1  153             Rx   d 6 3F 3F 00 01 00 FF
   1.5481 1  CB              Rx   d 8 54 00 80 00 01 19 50 00
   1.5483 1  CE              Rx   d 2 80 00
   1.5485 1  154             Rx   d 6 3F 3F 00 01 00 FF
   1.5624 1  047             Tx   d 7 84 00 00 00 00 5a 5f 
   1.5630 1  048             Tx   d 7 84 00 00 00 00 55 e4 
   1.5634 1  041             Tx   d 6 84 fa 00 03 06 aa 
   1.5637 1  042             Tx   d 6 84 fa 00 03 06 a5 
   1.5572 1  CA              Rx   d 8 54 00 7F FE 01 18 70 00
   1.5573 1  CD              Rx   d 2 7E F4
   1.5575 1  153             Rx   d 6 3F 3F 00 01 00 FF
   1.5577 1  386             Rx   d 5 AA AA A8 4D 00
   1.5582 1  CB              Rx   d 8 54 00 80 00 01 18 70 00
   1.5585 1  CE              Rx   d 2 80 00
   1.5589 1  154             Rx   d 6 3F 3F 00 01 00 FF
   1.5591 1  387             Rx   d 5 AA AA A8 4D 00
   1.5671 1  CA              Rx   d 8 54 00 7F FE 01 17 10 00
   1.5672 1  CD              Rx   d 2 7E F4
   1.5674 1  153             Rx   d 6 3F 3F 00 01 00 FF
   1.5681 1  CB              Rx   d 8 54 00 80 00 01 17 10 00
   1.5682 1  CE              Rx   d 2 80 00
   1.5684 1  154             Rx   d 6 3F 3F 00 01 00 FF
   1.5785 1  047             Tx   d 7 c4 00 00 00 00 5a 0f 
   1.5798 1  048             Tx   d 7 c4 00 00 00 00 55 b4 
   1.5803 1  041             Tx   d 6 c4 fa 00 03 06 aa 
   1.5807 1  042             Tx   d 6 c4 fa 00 03 06 a5 
   1.5771 1  CA              Rx   d 8 54 00 7F FE 01 17 30 00
   1.5772 1  CD              Rx   d 2 7E F4
   1.5774 1  153             Rx   d 6 3F 3F 00 01 00 FF
   1.5781 1  CB              Rx   d 8 54 00 80 00 01 16 30 00
   1.5782 1  CE              Rx   d 2 80 00
   1.5785 1  154             Rx   d 6 3F 3F 00 01 00 FF
   1.5935 1  047             Tx   d 7 04 00 00 00 00 5a ff 
   1.5871 1  CA              Rx   d 8 54 00 7F FE 01 16 50 00
   1.5872 1  CD              Rx   d 2 7E F4
   1.5874 1  153             Rx   d 6 3F 3F 00 01 00 FF
   1.5881 1  CB              Rx   d 8 54 00 80 00 01 16 50 00
   1.5882 1  CE              Rx   d 2 80 00
   1.5884 1  154             Rx   d 6 3F 3F 00 01 00 FF
   1.5976 1  048             Tx   d 7 04 00 00 00 00 55 44 
   1.5994 1  041             Tx   d 6 04 fa 00 03 06 aa 
   1.5998 1  042             Tx   d 6 04 fa 00 03 06 a5 
   1.5971 1  CA              Rx   d 8 54 00 7F FE 01 15 70 00
   1.5972 1  CD              Rx   d 2 7E F4
   1.5974 1  153             Rx   d 6 3F 3F 00 01 00 FF
   1.5981 1  CB              Rx   d 8 54 00 80 00 01 15 70 00
   1.5983 1  CE              Rx   d 2 80 00
   1.5985 1  154             Rx   d 6 3F 3F 00 01 00 FF
   1.6129 1  047             Tx   d 7 44 00 00 00 00 5a af 
   1.6134 1  048             Tx   d 7 44 00 00 00 00 55 14 
   1.6139 1  041             Tx   d 6 44 fa 00 03 06 aa 
   1.6142 1  042             Tx   d 6 44 fa 00 03 06 a5 
   1.6071 1  CA              Rx   d 8 54 00 7F FE 01 14 10 00
   1.6073 1  CD              Rx   d 2 7E F4
   1.6075 1  153             Rx   d 6 3F 3F 00 01 00 FF
   1.6081 1  CB              Rx   d 8 54 00 80 00 01 14 10 00
   1.6082 1  CE              Rx   d 2 80 00
   1.6084 1  154             Rx   d 6 3F 3F 00 01 00 FF
   1.6171 1  CA              Rx   d 8 54 00 7F FE 01 14 30 00
   1.6172 1  CD              Rx   d 2 7E F4
   1.6174 1  153             Rx   d 6 3F 3F 00 01 00 FF
   1.6181 1  CB              Rx   d 8 54 00 80 00 01 13 30 00
   1.6182 1  CE              Rx   d 2 80 00
   1.6184 1  154             Rx   d 6 3F 3F 00 01 00 FF
   1.6292 1  047             Tx   d 7 84 00 00 00 00 5a 5f 
   1.6305 1  048             Tx   d 7 84 00 00 00 00 55 e4 
   1.6310 1  041             Tx   d 6 84 fa 00 03 06 aa 
   1.6313 1  042             Tx   d 6 84 fa 00 03 06 a5 
   1.6271 1  CA              Rx   d 8 54 00 7F FE 01 13 50 00
   1.6272 1  CD              Rx   d 2 7E F4
   1.6274 1  153             Rx   d 6 3F 3F 00 01 00 FF
   1.6281 1  CB              Rx   d 8 54 00 80 00 01 13 50 00
   1.6283 1  CE              Rx   d 2 80 00
   1.6285 1  154             Rx   d 6 3F 3F 00 01 00 FF
   1.6371 1  CA              Rx   d 8 54 00 7F FE 01 12 70 00
   1.6372 1  CD              Rx   d 2 7E F4
   1.6374 1  153             Rx   d 6 3F 3F 00 01 00 FF
   1.6381 1  CB              Rx   d 8 54 00 80 00 01 12 70 00
   1.6382 1  CE              Rx   d 2 80 00
   1.6384 1  154             Rx   d 6 3F 3F 00 01 00 FF
   1.6475 1  047             Tx   d 7 c4 00 00 00 00 5a 0f 
   1.6489 1  048             Tx   d 7 c4 00 00 00 00 55 b4 
   1.6494 1  041             Tx   d 6 c4 fa 00 03 06 aa 
   1.6498 1  042             Tx   d 6 c4 fa 00 03 06 a5 
   1.6471 1  CA              Rx   d 8 54 00 7F FE 01 11 10 00
   1.6472 1  CD              Rx   d 2 7E F4
   1.6475 1  153             Rx   d 6 3F 3F 00 01 00 FF
   1.6481 1  CB              Rx   d 8 54 00 80 00 01 11 10 00
   1.6483 1  CE              Rx   d 2 80 00
   1.6485 1  154             Rx   d 6 3F 3F 00 01 00 FF
   1.6629 1  047             Tx   d 7 04 00 00 00 00 5a ff 
   1.6634 1  048             Tx   d 7 04 00 00 00 00 55 44 
   1.6638 1  041             Tx   d 6 04 fa 00 03 06 aa 
   1.6642 1  042             Tx   d 6 04 fa 00 03 06 a5 
   1.6571 1  CA              Rx   d 8 54 00 7F FE 01 11 30 00
   1.6572 1  CD              Rx   d 2 7E F4
   1.6574 1  153             Rx   d 6 3F 3F 00 01 00 FF
   1.6576 1  386             Rx   d 5 B4 B2 B0 4E 00
   1.6581 1  684             Rx   d 8 00 00 00 00 00 00 00 00
   1.6583 1  CB              Rx   d 8 54 00 80 00 01 11 30 00
   1.6587 1  CE              Rx   d 2 80 00
   1.6591 1  154             Rx   d 6 3F 3F 00 01 00 FF
   1.6595 1  387             Rx   d 5 B4 B2 B0 4E 00
   1.6597 1  685             Rx   d 8 00 00 00 00 00 00 00 00
   1.6671 1  CA              Rx   d 8 54 00 7F FE 01 10 50 00
   1.6672 1  CD              Rx   d 2 7E F4
   1.6674 1  153             Rx   d 6 3F 3F 00 01 00 FF
   1.6681 1  CB              Rx   d 8 54 00 80 00 01 10 50 00
   1.6682 1  CE              Rx   d 2 80 00
   1.6684 1  154             Rx   d 6 3F 3F 00 01 00 FF
   1.6791 1  047             Tx   d 7 44 00 00 00 00 5a af 
   1.6804 1  048             Tx   d 7 44 00 00 00 00 55 14 
   1.6809 1  041             Tx   d 6 44 fa 00 03 06 aa 
   1.6813 1  042             Tx   d 6 44 fa 00 03 06 a5 
   1.6771 1  CA              Rx   d 8 54 00 7F FE 01 0F 70 00
   1.6772 1  CD              Rx   d 2 7E F4
   1.6774 1  153             Rx   d 6 3F 3F 00 01 00 FF
   1.6781 1  CB              Rx   d 8 54 00 80 00 01 0F 70 00
   1.6783 1  CE              Rx   d 2 80 00
   1.6785 1  154             Rx   d 6 3F 3F 00 01 00 FF
   1.6928 1  047             Tx   d 7 84 00 00 00 00 5a 5f 
   1.6932 1  048             Tx   d 7 84 00 00 00 00 55 e4 
   1.6936 1  041             Tx   d 6 84 fa 00 03 06 aa 
   1.6940 1  042             Tx   d 6 84 fa 00 03 06 a5 
   1.6871 1  CA              Rx   d 8 54 00 7F FE 01 0E 10 00
   1.6872 1  CD              Rx   d 2 7E F4
   1.6874 1  153             Rx   d 6 3F 3F 00 01 00 FF
   1.6881 1  CB              Rx   d 8 54 00 80 00 01 0E 10 00
   1.6884 1  CE              Rx   d 2 80 00
   1.6888 1  154             Rx   d 6 3F 3F 00 01 00 FF
   1.6971 1  CA              Rx   d 8 54 00 7F FE 01 0D 30 00
   1.6972 1  CD              Rx   d 2 7E F4
   1.6974 1  153             Rx   d 6 3F 3F 00 01 00 FF
   1.6981 1  CB              Rx   d 8 54 00 80 00 01 0D 30 00
   1.6982 1  CE              Rx   d 2 80 00
   1.6984 1  154             Rx   d 6 3F 3F 00 01 00 FF
   1.7090 1  047             Tx   d 7 c4 00 00 00 00 5a 0f 
   1.7103 1  048             Tx   d 7 c4 00 00 00 00 55 b4 
   1.7107 1  041             Tx   d 6 c4 fa 00 03 06 aa 
   1.7111 1  042             Tx   d 6 c4 fa 00 03 06 a5 
   1.7071 1  CA              Rx   d 8 54 00 7F FE 01 0C 50 00
   1.7072 1  CD              Rx   d 2 7E F4
   1.7074 1  153             Rx   d 6 3F 3F 00 01 00 FF
   1.7081 1  CB              Rx   d 8 54 00 80 00 01 0C 50 00
   1.7083 1  CE              Rx   d 2 80 00
   1.7085 1  154             Rx   d 6 3F 3F 00 01 00 FF
   1.7224 1  047             Tx   d 7 04 00 00 00 00 5a ff 
   1.7229 1  048             Tx   d 7 04 00 00 00 00 55 44 
   1.7233 1  041             Tx   d 6 04 fa 00 03 06 aa 
   1.7237 1  042             Tx   d 6 04 fa 00 03 06 a5 
   1.7171 1  CA              Rx   d 8 54 00 7F FE 01 0B 70 00
   1.7172 1  CD              Rx   d 2 7E F4
   1.7176 1  153             Rx   d 6 3F 3F 00 01 00 FF
   1.7181 1  CB              Rx   d 8 54 00 80 00 01 0C 70 00
   1.7185 1  CE              Rx   d 2 80 00
   1.7187 1  154             Rx   d 6 3F 3F 00 01 00 FF
   1.7271 1  CA              Rx   d 8 54 00 7F FE 01 0B 10 00
   1.7272 1  CD              Rx   d 2 7E F4
   1.7274 1  153             Rx   d 6 3F 3F 00 01 00 FF
   1.7281 1  CB              Rx   d 8 54 00 80 00 01 0B 10 00
   1.7282 1  CE              Rx   d 2 80 00
   1.7284 1  154             Rx   d 6 3F 3F 00 01 00 FF
   1.7394 1  047             Tx   d 7 44 00 00 00 00 5a af 
   1.7409 1  048             Tx   d 7 44 00 00 00 00 55 14 
   1.7413 1  041             Tx   d 6 44 fa 00 03 06 aa 
   1.7417 1  042             Tx   d 6 44 fa 00 03 06 a5 
   1.7371 1  CA              Rx   d 8 54 00 7F FE 01 0A 30 00
   1.7372 1  CD              Rx   d 2 7E F4
   1.7374 1  153             Rx   d 6 3F 3F 00 01 00 FF
   1.7381 1  CB              Rx   d 8 54 00 80 00 01 0A 30 00
   1.7382 1  CE              Rx   d 2 80 00
   1.7385 1  154             Rx   d 6 3F 3F 00 01 00 FF
   1.7530 1  047             Tx   d 7 84 00 00 00 00 5a 5f 
   1.7534 1  048             Tx   d 7 84 00 00 00 00 55 e4 
   1.7471 1  CA              Rx   d 8 54 00 7F FE 01 09 50 00
   1.7472 1  CD              Rx   d 2 7E F4
   1.7474 1  153             Rx   d 6 3F 3F 00 01 00 FF
   1.7481 1  CB              Rx   d 8 54 00 80 00 01 09 50 00
   1.7483 1  CE              Rx   d 2 80 00
   1.7487 1  154             Rx   d 6 3F 3F 00 01 00 FF
   1.7574 1  041             Tx   d 6 84 fa 00 03 06 aa 
   1.7587 1  042             Tx   d 6 84 fa 00 03 06 a5 
   1.7571 1  CA              Rx   d 8 54 00 7F FE 01 08 70 00
   1.7572 1  CD              Rx   d 2 7E F4
   1.7574 1  153             Rx   d 6 3F 3F 00 01 00 FF
   1.7576 1  386             Rx   d 5 BB B8 B8 4F 00
   1.7581 1  CB              Rx   d 8 54 00 80 00 01 09 70 00
   1.7583 1  CE              Rx   d 2 80 00
   1.7585 1  154             Rx   d 6 3F 3F 00 01 00 FF
   1.7586 1  387             Rx   d 5 BB B8 B8 4F 00
   1.7740 1  047             Tx   d 7 c4 00 00 00 00 5a 0f 
   1.7745 1  048             Tx   d 7 c4 00 00 00 00 55 b4 
   1.7671 1  CA              Rx   d 8 54 00 7F FE 01 07 10 00
   1.7672 1  CD              Rx   d 2 7E F4
   1.7674 1  153             Rx   d 6 3F 3F 00 01 00 FF
   1.7681 1  CB              Rx   d 8 54 00 80 00 01 08 10 00
   1.7682 1  CE              Rx   d 2 80 00
   1.7684 1  154             Rx   d 6 3F 3F 00 01 00 FF
   1.7784 1  041             Tx   d 6 c4 fa 00 03 06 aa 
   1.7796 1  042             Tx   d 6 c4 fa 00 03 06 a5 
   1.7771 1  CA              Rx   d 8 54 00 7F FE 01 07 30 00
   1.7772 1  CD              Rx   d 2 7E F4
   1.7774 1  153             Rx   d 6 3F 3F 00 01 00 FF
   1.7781 1  CB              Rx   d 8 54 00 80 00 01 07 30 00
   1.7782 1  CE              Rx   d 2 80 00
   1.7784 1  154             Rx   d 6 3F 3F 00 01 00 FF
   1.7927 1  047             Tx   d 7 04 00 00 00 00 5a ff 
   1.7933 1  048             Tx   d 7 04 00 00 00 00 55 44 
   1.7871 1  CA              Rx   d 8 54 00 7F FE 01 06 50 00
   1.7873 1  CD              Rx   d 2 7E F4
   1.7875 1  153             Rx   d 6 3F 3F 00 01 00 FF
   1.7880 1  CB              Rx   d 8 54 00 80 00 01 06 50 00
   1.7884 1  CE              Rx   d 2 80 00
   1.7886 1  154             Rx   d 6 3F 3F 00 01 00 FF
   1.7974 1  041             Tx   d 6 04 fa 00 03 06 aa 
   1.7989 1  042             Tx   d 6 04 fa 00 03 06 a5 
   1.7971 1  CA              Rx   d 8 54 00 7F FE 01 05 70 00
   1.7972 1  CD              Rx   d 2 7E F4
   1.7974 1  153             Rx   d 6 3F 3F 00 01 00 FF
   1.7981 1  CB              Rx   d 8 54 00 80 00 01 05 70 00
   1.8115 1  047             Tx   d 7 44 00 00 00 00 5a af 
   1.7982 1  CE              Rx   d 2 80 00
   1.7985 1  154             Rx   d 6 3F 3F 00 01 00 FF
   1.8133 1  048             Tx   d 7 44 00 00 00 00 55 14 
   1.8142 1  041             Tx   d 6 44 fa 00 03 06 aa 
   1.8073 1  CA              Rx   d 8 54 00 7F FE 01 04 10 00
   1.8075 1  CD              Rx   d 2 7E F4
   1.8077 1  153             Rx   d 6 3F 3F 00 01 00 FF
   1.8081 1  CB              Rx   d 8 54 00 80 00 01 05 10 00
   1.8083 1  CE              Rx   d 2 80 00
   1.8085 1  154             Rx   d 6 3F 3F 00 01 00 FF
   1.8181 1  042             Tx   d 6 44 fa 00 03 06 a5 
   1.8171 1  CA              Rx   d 8 54 00 7F FE 01 04 30 00
   1.8172 1  CD              Rx   d 2 7E F4
   1.8174 1  153             Rx   d 6 3F 3F 00 01 00 FF
   1.8181 1  CB              Rx   d 8 54 00 80 00 01 04 30 00
   1.8182 1  CE              Rx   d 2 80 00
   1.8184 1  154             Rx   d 6 3F 3F 00 01 00 FF
   1.8321 1  047             Tx   d 7 84 00 00 00 00 5a 5f 
   1.8325 1  048             Tx   d 7 84 00 00 00 00 55 e4 
   1.8329 1  041             Tx   d 6 84 fa 00 03 06 aa 
   1.8334 1  042             Tx   d 6 84 fa 00 03 06 a5 
   1.8273 1  CA              Rx   d 8 54 00 7F FE 01 03 50 00
   1.8274 1  CD              Rx   d 2 7E F4
   1.8279 1  153             Rx   d 6 3F 3F 00 01 00 FF
