date Sat Sep 09 02:12:02 AM 2018
base hex  timestamps absolute
internal events logged
Begin Triggerblock Sat Sep 09 02:12:02 AM 2018
   0.0006 Start of measurement
   0.0007 Start of logging...
   0.0028 1  CA              Rx   d 8 54 00 80 00 05 66 50 00
   2.7606 1  CD              Rx   d 2 7E F4
   2.7608 1  153             Rx   d 6 41 3F 00 01 00 FF
   2.7615 1  CB              Rx   d 8 54 00 80 00 05 65 50 00
   2.7617 1  CE              Rx   d 2 80 00
   2.7618 1  154             Rx   d 6 41 3F 00 01 00 FF
   2.7705 1  CA              Rx   d 8 54 00 80 00 05 66 70 00
   2.7706 1  CD              Rx   d 2 7E F4
   2.7708 1  153             Rx   d 6 41 3F 00 01 00 FF
   2.7715 1  CB              Rx   d 8 54 00 80 00 05 65 70 00
   2.7717 1  CE              Rx   d 2 80 00
   2.7719 1  154             Rx   d 6 41 3F 00 01 00 FF
   2.7805 1  CA              Rx   d 8 54 00 80 00 05 66 10 00
   2.7806 1  CD              Rx   d 2 7E F4
   2.7808 1  153             Rx   d 6 41 3F 00 01 00 FF
   2.7815 1  CB              Rx   d 8 54 00 80 00 05 65 10 00
   2.7816 1  CE              Rx   d 2 80 00
   2.7819 1  154             Rx   d 6 41 3F 00 01 00 FF
   2.7905 1  CA              Rx   d 8 54 00 80 00 05 66 30 00
   2.7906 1  CD              Rx   d 2 7E F4
   2.7908 1  153             Rx   d 6 41 3F 00 01 00 FF
   2.7915 1  CB              Rx   d 8 54 00 80 00 05 65 30 00
   2.7917 1  CE              Rx   d 2 80 00
   2.7919 1  154             Rx   d 6 41 3F 00 01 00 FF
   2.8005 1  CA              Rx   d 8 54 00 80 00 05 66 50 00
   2.8006 1  CD              Rx   d 2 7E F4
   2.8008 1  153             Rx   d 6 41 3F 00 01 00 FF
   2.8015 1  CB              Rx   d 8 54 00 80 00 05 65 50 00
   2.8016 1  CE              Rx   d 2 80 00
   2.8019 1  154             Rx   d 6 41 3F 00 01 00 FF
   2.8105 1  CA              Rx   d 8 54 00 80 00 05 66 70 00
   2.8107 1  CD              Rx   d 2 7E F4
   2.8109 1  153             Rx   d 6 41 3F 00 01 00 FF
   2.8110 1  386             Rx   d 5 EB EB E8 49 00
   2.8113 1  684             Rx   d 8 00 00 00 00 00 00 00 00
   2.8116 1  CB              Rx   d 8 54 00 80 00 05 65 70 00
   2.8117 1  CE              Rx   d 2 80 00
   2.8119 1  154             Rx   d 6 41 3F 00 01 00 FF
   2.8121 1  387             Rx   d 5 EB EB E8 49 00
   2.8124 1  685             Rx   d 8 00 00 00 00 00 00 00 00
   2.8205 1  CA              Rx   d 8 54 00 80 00 05 66 10 00
   2.8206 1  CD              Rx   d 2 7E F4
   2.8208 1  153             Rx   d 6 41 3F 00 01 00 FF
   2.8215 1  CB              Rx   d 8 54 00 80 00 05 65 10 00
   2.8217 1  CE              Rx   d 2 80 00
   2.8219 1  154             Rx   d 6 41 3F 00 01 00 FF
   2.8305 1  CA              Rx   d 8 54 00 80 00 05 66 30 00
   2.8306 1  CD              Rx   d 2 7E F4
   2.8308 1  153             Rx   d 6 41 3F 00 01 00 FF
   2.8315 1  CB              Rx   d 8 54 00 80 00 05 65 30 00
   2.8316 1  CE              Rx   d 2 80 00
   2.8319 1  154             Rx   d 6 41 3F 00 01 00 FF
   2.8405 1  CA              Rx   d 8 54 00 80 00 05 66 50 00
   2.8406 1  CD              Rx   d 2 7E F4
   2.8408 1  153             Rx   d 6 41 3F 00 01 00 FF
   2.8415 1  CB              Rx   d 8 54 00 80 00 05 65 50 00
   2.8416 1  CE              Rx   d 2 80 00
   2.8418 1  154             Rx   d 6 41 3F 00 01 00 FF
   2.8505 1  CA              Rx   d 8 54 00 80 00 05 66 70 00
   2.8506 1  CD              Rx   d 2 7E F4
   2.8508 1  153             Rx   d 6 41 3F 00 01 00 FF
   2.8515 1  CB              Rx   d 8 54 00 80 00 05 65 70 00
   2.8517 1  CE              Rx   d 2 80 00
   2.8519 1  154             Rx   d 6 41 3F 00 01 00 FF
   2.8606 1  CA              Rx   d 8 54 00 80 00 05 66 10 00
   2.8608 1  153             Rx   d 6 41 3F 00 01 00 FF
   2.8615 1  CB              Rx   d 8 54 00 80 00 05 65 10 00
   2.8616 1  CE              Rx   d 2 80 00
   2.8619 1  154             Rx   d 6 41 3F 00 01 00 FF
   2.8705 1  CA              Rx   d 8 54 00 80 00 05 66 30 00
   2.8706 1  CD              Rx   d 2 7E F4
   2.8708 1  153             Rx   d 6 41 3F 00 01 00 FF
   2.8715 1  CB              Rx   d 8 54 00 80 00 05 65 30 00
   2.8717 1  CE              Rx   d 2 80 00
   2.8718 1  154             Rx   d 6 41 3F 00 01 00 FF
   2.8805 1  CA              Rx   d 8 54 00 80 00 05 66 50 00
   2.8806 1  CD              Rx   d 2 7E F4
   2.8808 1  153             Rx   d 6 41 3F 00 01 00 FF
   2.8815 1  CB              Rx   d 8 54 00 80 00 05 65 50 00
   2.8816 1  CE              Rx   d 2 80 00
   2.8819 1  154             Rx   d 6 41 3F 00 01 00 FF
   2.8905 1  CA              Rx   d 8 54 00 80 00 05 66 70 00
   2.8928 1  047             Tx   d 7 c4 00 00 00 00 5a 0f 
   2.8906 1  CD              Rx   d 2 7E F4
   2.8908 1  153             Rx   d 6 41 3F 00 01 00 FF
   2.8915 1  CB              Rx   d 8 54 00 80 00 05 65 70 00
   2.8916 1  CE              Rx   d 2 80 00
   2.8918 1  154             Rx   d 6 41 3F 00 01 00 FF
   2.8944 1  048             Tx   d 7 c4 00 00 00 00 55 b4 
   2.8950 1  041             Tx   d 6 c4 fa 00 03 06 aa 
   2.8951 1  042             Tx   d 6 c4 fa 00 03 06 a5 
   2.9005 1  CA              Rx   d 8 54 00 80 00 05 66 10 00
   2.9006 1  CD              Rx   d 2 7E F4
   2.9008 1  153             Rx   d 6 41 3F 00 01 00 FF
   2.9015 1  CB              Rx   d 8 54 00 80 00 05 65 10 00
   2.9017 1  CE              Rx   d 2 80 00
   2.9019 1  154             Rx   d 6 41 3F 00 01 00 FF
   2.9043 1  047             Tx   d 7 04 00 00 00 00 5a ff 
   2.9045 1  048             Tx   d 7 04 00 00 00 00 55 44 
   2.9046 1  041             Tx   d 6 04 fa 00 03 06 aa 
   2.9048 1  042             Tx   d 6 04 fa 00 03 06 a5 
   2.9105 1  CA              Rx   d 8 54 00 80 00 05 66 30 00
   2.9106 1  CD              Rx   d 2 7E F4
   2.9108 1  153             Rx   d 6 41 3F 00 01 00 FF
   2.9110 1  386             Rx   d 5 F3 F2 F0 4A 00
   2.9115 1  CB              Rx   d 8 54 00 80 00 05 65 30 00
   2.9116 1  CE              Rx   d 2 80 00
   2.9119 1  154             Rx   d 6 41 3F 00 01 00 FF
   2.9121 1  387             Rx   d 5 F3 F2 F0 4A 00
   2.9151 1  047             Tx   d 7 44 00 00 00 00 5a af 
   2.9153 1  048             Tx   d 7 44 00 00 00 00 55 14 
   2.9154 1  041             Tx   d 6 44 fa 00 03 06 aa 
   2.9156 1  042             Tx   d 6 44 fa 00 03 06 a5 
   2.9205 1  CA              Rx   d 8 54 00 80 00 05 66 50 00
   2.9206 1  CD              Rx   d 2 7E F4
   2.9208 1  153             Rx   d 6 41 3F 00 01 00 FF
   2.9215 1  CB              Rx   d 8 54 00 80 00 05 65 50 00
   2.9217 1  CE              Rx   d 2 80 00
   2.9219 1  154             Rx   d 6 41 3F 00 01 00 FF
   2.9248 1  047             Tx   d 7 84 00 00 00 00 5a 5f 
   2.9250 1  048             Tx   d 7 84 00 00 00 00 55 e4 
   2.9251 1  041             Tx   d 6 84 fa 00 03 06 aa 
   2.9253 1  042             Tx   d 6 84 fa 00 03 06 a5 
   2.9305 1  CA              Rx   d 8 54 00 80 00 05 66 70 00
   2.9306 1  CD              Rx   d 2 7E F4
   2.9308 1  153             Rx   d 6 41 3F 00 01 00 FF
   2.9315 1  CB              Rx   d 8 54 00 80 00 05 65 70 00
   2.9317 1  CE              Rx   d 2 80 00
   2.9319 1  154             Rx   d 6 41 3F 00 01 00 FF
   2.9346 1  047             Tx   d 7 c4 00 00 00 00 5a 0f 
   2.9347 1  048             Tx   d 7 c4 00 00 00 00 55 b4 
   2.9349 1  041             Tx   d 6 c4 fa 00 03 06 aa 
   2.9350 1  042             Tx   d 6 c4 fa 00 03 06 a5 
   2.9405 1  CA              Rx   d 8 54 00 80 00 05 67 10 00
   2.9406 1  CD              Rx   d 2 7E F4
   2.9408 1  153             Rx   d 6 41 3F 00 01 00 FF
   2.9415 1  CB              Rx   d 8 54 00 80 00 05 65 10 00
   2.9417 1  CE              Rx   d 2 80 00
   2.9419 1  154             Rx   d 6 41 3F 00 01 00 FF
   2.9461 1  047             Tx   d 7 04 00 00 00 00 5a ff 
   2.9466 1  048             Tx   d 7 04 00 00 00 00 55 44 
   2.9468 1  041             Tx   d 6 04 fa 00 03 06 aa 
   2.9469 1  042             Tx   d 6 04 fa 00 03 06 a5 
   2.9505 1  CA              Rx   d 8 54 00 80 00 05 67 30 00
   2.9506 1  CD              Rx   d 2 7E F4
   2.9508 1  153             Rx   d 6 41 3F 00 01 00 FF
   2.9515 1  CB              Rx   d 8 54 00 80 00 05 65 30 00
   2.9517 1  CE              Rx   d 2 80 00
   2.9519 1  154             Rx   d 6 41 3F 00 01 00 FF
   2.9558 1  047             Tx   d 7 44 00 00 00 00 5a af 
   2.9560 1  048             Tx   d 7 44 00 00 00 00 55 14 
   2.9561 1  041             Tx   d 6 44 fa 00 03 06 aa 
   2.9563 1  042             Tx   d 6 44 fa 00 03 06 a5 
   2.9605 1  CA              Rx   d 8 54 00 80 00 05 67 50 00
   2.9606 1  CD              Rx   d 2 7E F4
   2.9608 1  153             Rx   d 6 41 3F 00 01 00 FF
   2.9615 1  CB              Rx   d 8 54 00 80 00 05 65 50 00
   2.9616 1  CE              Rx   d 2 80 00
   2.9619 1  154             Rx   d 6 41 3F 00 01 00 FF
   2.9651 1  047             Tx   d 7 84 00 00 00 00 5a 5f 
   2.9653 1  048             Tx   d 7 84 00 00 00 00 55 e4 
   2.9654 1  041             Tx   d 6 84 fa 00 03 06 aa 
   2.9656 1  042             Tx   d 6 84 fa 00 03 06 a5 
   2.9705 1  CA              Rx   d 8 54 00 80 00 05 67 70 00
   2.9706 1  CD              Rx   d 2 7E F4
   2.9708 1  153             Rx   d 6 41 3F 00 01 00 FF
   2.9715 1  CB              Rx   d 8 54 00 80 00 05 65 70 00
   2.9717 1  CE              Rx   d 2 80 00
   2.9719 1  154             Rx   d 6 41 3F 00 01 00 FF
   2.9744 1  047             Tx   d 7 c4 00 00 00 00 5a 0f 
   2.9746 1  048             Tx   d 7 c4 00 00 00 00 55 b4 
   2.9748 1  041             Tx   d 6 c4 fa 00 03 06 aa 
   2.9749 1  042             Tx   d 6 c4 fa 00 03 06 a5 
   2.9805 1  CA              Rx   d 8 54 00 80 00 05 67 10 00
   2.9806 1  CD              Rx   d 2 7E F4
   2.9808 1  153             Rx   d 6 41 3F 00 01 00 FF
   2.9815 1  CB              Rx   d 8 54 00 80 00 05 65 10 00
   2.9817 1  CE              Rx   d 2 80 00
   2.9819 1  154             Rx   d 6 41 3F 00 01 00 FF
   2.9845 1  047             Tx   d 7 04 00 00 00 00 5a ff 
   2.9849 1  048             Tx   d 7 04 00 00 00 00 55 44 
   2.9851 1  041             Tx   d 6 04 fa 00 03 06 aa 
   2.9852 1  042             Tx   d 6 04 fa 00 03 06 a5 
   2.9905 1  CA              Rx   d 8 54 00 80 00 05 66 30 00
   2.9906 1  CD              Rx   d 2 7E F4
   2.9908 1  153             Rx   d 6 41 3F 00 01 00 FF
   2.9915 1  CB              Rx   d 8 54 00 80 00 05 65 30 00
   2.9916 1  CE              Rx   d 2 80 00
   2.9919 1  154             Rx   d 6 41 3F 00 01 00 FF
   2.9956 1  047             Tx   d 7 44 00 00 00 00 5a af 
   2.9958 1  048             Tx   d 7 44 00 00 00 00 55 14 
   2.9959 1  041             Tx   d 6 44 fa 00 03 06 aa 
   2.9960 1  042             Tx   d 6 44 fa 00 03 06 a5 
   3.0005 1  CA              Rx   d 8 54 00 80 00 05 66 50 00
   3.0006 1  CD              Rx   d 2 7E F4
   3.0008 1  153             Rx   d 6 41 3F 00 01 00 FF
   3.0015 1  CB              Rx   d 8 54 00 80 00 05 65 50 00
   3.0017 1  CE              Rx   d 2 80 00
   3.0019 1  154             Rx   d 6 41 3F 00 01 00 FF
   3.0049 1  047             Tx   d 7 84 00 00 00 00 5a 5f 
   3.0050 1  048             Tx   d 7 84 00 00 00 00 55 e4 
   3.0052 1  041             Tx   d 6 84 fa 00 03 06 aa 
   3.0053 1  042             Tx   d 6 84 fa 00 03 06 a5 
   3.0105 1  CA              Rx   d 8 54 00 80 00 05 66 70 00
   3.0106 1  CD              Rx   d 2 7E F4
   3.0108 1  153             Rx   d 6 41 3F 00 01 00 FF
   3.0110 1  386             Rx   d 5 FA FA F8 4B 00
   3.0115 1  CB              Rx   d 8 54 00 80 00 05 65 70 00
   3.0117 1  CE              Rx   d 2 80 00
   3.0119 1  154             Rx   d 6 41 3F 00 01 00 FF
   3.0120 1  387             Rx   d 5 FA FA F8 4B 00
   3.0152 1  047             Tx   d 7 c4 00 00 00 00 5a 0f 
   3.0154 1  048             Tx   d 7 c4 00 00 00 00 55 b4 
   3.0156 1  041             Tx   d 6 c4 fa 00 03 06 aa 
   3.0157 1  042             Tx   d 6 c4 fa 00 03 06 a5 
   3.0205 1  CA              Rx   d 8 54 00 80 00 05 66 10 00
   3.0206 1  CD              Rx   d 2 7E F4
   3.0208 1  153             Rx   d 6 41 3F 00 01 00 FF
   3.0215 1  CB              Rx   d 8 54 00 80 00 05 65 10 00
   3.0217 1  CE              Rx   d 2 80 00
   3.0219 1  154             Rx   d 6 41 3F 00 01 00 FF
   3.0245 1  047             Tx   d 7 04 00 00 00 00 5a ff 
   3.0247 1  048             Tx   d 7 04 00 00 00 00 55 44 
   3.0248 1  041             Tx   d 6 04 fa 00 03 06 aa 
   3.0250 1  042             Tx   d 6 04 fa 00 03 06 a5 
   3.0305 1  CA              Rx   d 8 54 00 80 00 05 66 30 00
   3.0306 1  CD              Rx   d 2 7E F4
   3.0308 1  153             Rx   d 6 41 3F 00 01 00 FF
   3.0315 1  CB              Rx   d 8 54 00 80 00 05 65 30 00
   3.0341 1  047             Tx   d 7 44 00 00 00 00 5a af 
   3.0317 1  CE              Rx   d 2 80 00
   3.0319 1  154             Rx   d 6 41 3F 00 01 00 FF
   3.0351 1  048             Tx   d 7 44 00 00 00 00 55 14 
   3.0352 1  041             Tx   d 6 44 fa 00 03 06 aa 
   3.0354 1  042             Tx   d 6 44 fa 00 03 06 a5 
   3.0405 1  CA              Rx   d 8 54 00 80 00 05 66 50 00
   3.0406 1  CD              Rx   d 2 7E F4
   3.0408 1  153             Rx   d 6 41 3F 00 01 00 FF
   3.0415 1  CB              Rx   d 8 54 00 80 00 05 65 50 00
   3.0416 1  CE              Rx   d 2 80 00
   3.0419 1  154             Rx   d 6 41 3F 00 01 00 FF
   3.0463 1  047             Tx   d 7 84 00 00 00 00 5a 5f 
   3.0469 1  048             Tx   d 7 84 00 00 00 00 55 e4 
   3.0470 1  041             Tx   d 6 84 fa 00 03 06 aa 
   3.0472 1  042             Tx   d 6 84 fa 00 03 06 a5 
   3.0505 1  CA              Rx   d 8 54 00 80 00 05 66 70 00
   3.0506 1  CD              Rx   d 2 7E F4
   3.0508 1  153             Rx   d 6 41 3F 00 01 00 FF
   3.0515 1  CB              Rx   d 8 54 00 80 00 05 65 70 00
   3.0517 1  CE              Rx   d 2 80 00
   3.0519 1  154             Rx   d 6 41 3F 00 01 00 FF
   3.0560 1  047             Tx   d 7 c4 00 00 00 00 5a 0f 
   3.0562 1  048             Tx   d 7 c4 00 00 00 00 55 b4 
   3.0564 1  041             Tx   d 6 c4 fa 00 03 06 aa 
   3.0565 1  042             Tx   d 6 c4 fa 00 03 06 a5 
   3.0605 1  CA              Rx   d 8 54 00 80 00 05 66 10 00
   3.0606 1  CD              Rx   d 2 7E F4
   3.0608 1  153             Rx   d 6 41 3F 00 01 00 FF
   3.0616 1  CB              Rx   d 8 54 00 80 00 05 66 10 00
   3.0617 1  CE              Rx   d 2 80 00
   3.0619 1  154             Rx   d 6 41 3F 00 01 00 FF
   3.0653 1  047             Tx   d 7 04 00 00 00 00 5a ff 
   3.0655 1  048             Tx   d 7 04 00 00 00 00 55 44 
   3.0656 1  041             Tx   d 6 04 fa 00 03 06 aa 
   3.0658 1  042             Tx   d 6 04 fa 00 03 06 a5 
   3.0705 1  CA              Rx   d 8 54 00 80 00 05 66 30 00
   3.0706 1  CD              Rx   d 2 7E F4
   3.0708 1  153             Rx   d 6 41 3F 00 01 00 FF
   3.0715 1  CB              Rx   d 8 54 00 80 00 05 66 30 00
   3.0716 1  CE              Rx   d 2 80 00
   3.0719 1  154             Rx   d 6 41 3F 00 01 00 FF
   3.0746 1  047             Tx   d 7 44 00 00 00 00 5a af 
   3.0748 1  048             Tx   d 7 44 00 00 00 00 55 14 
   3.0749 1  041             Tx   d 6 44 fa 00 03 06 aa 
   3.0750 1  042             Tx   d 6 44 fa 00 03 06 a5 
   3.0805 1  CA              Rx   d 8 54 00 80 00 05 67 50 00
   3.0806 1  CD              Rx   d 2 7E F4
   3.0808 1  153             Rx   d 6 41 3F 00 01 00 FF
   3.0815 1  CB              Rx   d 8 54 00 80 00 05 65 50 00
   3.0817 1  CE              Rx   d 2 80 00
   3.0819 1  154             Rx   d 6 41 3F 00 01 00 FF
   3.0845 1  047             Tx   d 7 84 00 00 00 00 5a 5f 
   3.0847 1  048             Tx   d 7 84 00 00 00 00 55 e4 
   3.0848 1  041             Tx   d 6 84 fa 00 03 06 aa 
   3.0849 1  042             Tx   d 6 84 fa 00 03 06 a5 
   3.0905 1  CA              Rx   d 8 54 00 80 00 05 66 70 00
   3.0906 1  CD              Rx   d 2 7E F4
   3.0908 1  153             Rx   d 6 41 3F 00 01 00 FF
   3.0915 1  CB              Rx   d 8 54 00 80 00 05 65 70 00
   3.0917 1  CE              Rx   d 2 80 00
   3.0919 1  154             Rx   d 6 41 3F 00 01 00 FF
   3.0948 1  047             Tx   d 7 c4 00 00 00 00 5a 0f 
   3.0950 1  048             Tx   d 7 c4 00 00 00 00 55 b4 
   3.0953 1  041             Tx   d 6 c4 fa 00 03 06 aa 
   3.0955 1  042             Tx   d 6 c4 fa 00 03 06 a5 
   3.1005 1  CA              Rx   d 8 54 00 80 00 05 66 10 00
   3.1006 1  CD              Rx   d 2 7E F4
   3.1008 1  153             Rx   d 6 41 3F 00 01 00 FF
   3.1015 1  CB              Rx   d 8 54 00 80 00 05 65 10 00
   3.1017 1  CE              Rx   d 2 80 00
   3.1019 1  154             Rx   d 6 41 3F 00 01 00 FF
   3.1048 1  047             Tx   d 7 04 00 00 00 00 5a ff 
   3.1050 1  048             Tx   d 7 04 00 00 00 00 55 44 
   3.1051 1  041             Tx   d 6 04 fa 00 03 06 aa 
   3.1053 1  042             Tx   d 6 04 fa 00 03 06 a5 
   3.1105 1  CA              Rx   d 8 54 00 80 00 05 66 30 00
   3.1106 1  CD              Rx   d 2 7E F4
   3.1108 1  153             Rx   d 6 41 3F 00 01 00 FF
   3.1110 1  386             Rx   d 5 02 02 02 4C 00
   3.1115 1  CB              Rx   d 8 54 00 80 00 05 65 30 00
   3.1117 1  CE              Rx   d 2 80 00
   3.1119 1  154             Rx   d 6 41 3F 00 01 00 FF
   3.1120 1  387             Rx   d 5 02 02 02 4C 00
   3.1153 1  047             Tx   d 7 44 00 00 00 00 5a af 
   3.1155 1  048             Tx   d 7 44 00 00 00 00 55 14 
   3.1157 1  041             Tx   d 6 44 fa 00 03 06 aa 
   3.1158 1  042             Tx   d 6 44 fa 00 03 06 a5 
   3.1205 1  CA              Rx   d 8 54 00 80 00 05 66 50 00
   3.1206 1  CD              Rx   d 2 7E F4
   3.1208 1  153             Rx   d 6 41 3F 00 01 00 FF
   3.1215 1  CB              Rx   d 8 54 00 80 00 05 65 50 00
   3.1216 1  CE              Rx   d 2 80 00
   3.1219 1  154             Rx   d 6 41 3F 00 01 00 FF
   3.1246 1  047             Tx   d 7 84 00 00 00 00 5a 5f 
   3.1248 1  048             Tx   d 7 84 00 00 00 00 55 e4 
   3.1250 1  041             Tx   d 6 84 fa 00 03 06 aa 
   3.1251 1  042             Tx   d 6 84 fa 00 03 06 a5 
   3.1305 1  CA              Rx   d 8 54 00 80 00 05 67 70 00
   3.1306 1  CD              Rx   d 2 7E F4
   3.1308 1  153             Rx   d 6 41 3F 00 01 00 FF
   3.1315 1  CB              Rx   d 8 54 00 80 00 05 65 70 00
   3.1317 1  CE              Rx   d 2 80 00
   3.1319 1  154             Rx   d 6 41 3F 00 01 00 FF
   3.1344 1  047             Tx   d 7 c4 00 00 00 00 5a 0f 
   3.1346 1  048             Tx   d 7 c4 00 00 00 00 55 b4 
   3.1348 1  041             Tx   d 6 c4 fa 00 03 06 aa 
   3.1349 1  042             Tx   d 6 c4 fa 00 03 06 a5 
   3.1405 1  CA              Rx   d 8 54 00 80 00 05 67 10 00
   3.1406 1  CD              Rx   d 2 7E F4
   3.1408 1  153             Rx   d 6 41 3F 00 01 00 FF
   3.1415 1  CB              Rx   d 8 54 00 80 00 05 65 10 00
   3.1417 1  CE              Rx   d 2 80 00
   3.1445 1  047             Tx   d 7 04 00 00 00 00 5a ff 
   3.1419 1  154             Rx   d 6 41 3F 00 01 00 FF
   3.1452 1  048             Tx   d 7 04 00 00 00 00 55 44 
   3.1454 1  041             Tx   d 6 04 fa 00 03 06 aa 
   3.1456 1  042             Tx   d 6 04 fa 00 03 06 a5 
   3.1505 1  CA              Rx   d 8 54 00 80 00 05 67 30 00
   3.1506 1  CD              Rx   d 2 7E F4
   3.1508 1  153             Rx   d 6 41 3F 00 01 00 FF
   3.1515 1  CB              Rx   d 8 54 00 80 00 05 65 30 00
   3.1516 1  CE              Rx   d 2 80 00
   3.1519 1  154             Rx   d 6 41 3F 00 01 00 FF
   3.1548 1  047             Tx   d 7 44 00 00 00 00 5a af 
   3.1550 1  048             Tx   d 7 44 00 00 00 00 55 14 
   3.1551 1  041             Tx   d 6 44 fa 00 03 06 aa 
   3.1553 1  042             Tx   d 6 44 fa 00 03 06 a5 
   3.1605 1  CA              Rx   d 8 54 00 80 00 05 66 50 00
   3.1606 1  CD              Rx   d 2 7E F4
   3.1608 1  153             Rx   d 6 41 3F 00 01 00 FF
   3.1615 1  CB              Rx   d 8 54 00 80 00 05 65 50 00
   3.1617 1  CE              Rx   d 2 80 00
   3.1619 1  154             Rx   d 6 41 3F 00 01 00 FF
   3.1649 1  047             Tx   d 7 84 00 00 00 00 5a 5f 
   3.1651 1  048             Tx   d 7 84 00 00 00 00 55 e4 
   3.1653 1  041             Tx   d 6 84 fa 00 03 06 aa 
   3.1654 1  042             Tx   d 6 84 fa 00 03 06 a5 
   3.1705 1  CA              Rx   d 8 54 00 80 00 05 66 70 00
   3.1706 1  CD              Rx   d 2 7E F4
   3.1708 1  153             Rx   d 6 41 3F 00 01 00 FF
   3.1715 1  CB              Rx   d 8 54 00 80 00 05 65 70 00
   3.1717 1  CE              Rx   d 2 80 00
   3.1719 1  154             Rx   d 6 41 3F 00 01 00 FF
   3.1744 1  047             Tx   d 7 c4 00 00 00 00 5a 0f 
   3.1746 1  048             Tx   d 7 c4 00 00 00 00 55 b4 
   3.1748 1  041             Tx   d 6 c4 fa 00 03 06 aa 
   3.1749 1  042             Tx   d 6 c4 fa 00 03 06 a5 
   3.1805 1  CA              Rx   d 8 54 00 80 00 05 66 10 00
   3.1806 1  CD              Rx   d 2 7E F4
   3.1808 1  153             Rx   d 6 41 3F 00 01 00 FF
   3.1815 1  CB              Rx   d 8 54 00 80 00 05 65 10 00
   3.1816 1  CE              Rx   d 2 80 00
   3.1819 1  154             Rx   d 6 41 3F 00 01 00 FF
   3.1844 1  047             Tx   d 7 04 00 00 00 00 5a ff 
   3.1846 1  048             Tx   d 7 04 00 00 00 00 55 44 
   3.1848 1  041             Tx   d 6 04 fa 00 03 06 aa 
   3.1849 1  042             Tx   d 6 04 fa 00 03 06 a5 
   3.1905 1  CA              Rx   d 8 54 00 80 00 05 66 30 00
   3.1906 1  CD              Rx   d 2 7E F4
   3.1908 1  153             Rx   d 6 41 3F 00 01 00 FF
   3.1915 1  CB              Rx   d 8 54 00 80 00 05 65 30 00
   3.1917 1  CE              Rx   d 2 80 00
   3.1944 1  047             Tx   d 7 44 00 00 00 00 5a af 
   3.1919 1  154             Rx   d 6 41 3F 00 01 00 FF
   3.1951 1  048             Tx   d 7 44 00 00 00 00 55 14 
   3.1953 1  041             Tx   d 6 44 fa 00 03 06 aa 
   3.1955 1  042             Tx   d 6 44 fa 00 03 06 a5 
   3.2005 1  CA              Rx   d 8 54 00 80 00 05 66 50 00
   3.2006 1  CD              Rx   d 2 7E F4
   3.2008 1  153             Rx   d 6 41 3F 00 01 00 FF
   3.2015 1  CB              Rx   d 8 54 00 80 00 05 65 50 00
   3.2016 1  CE              Rx   d 2 80 00
   3.2019 1  154             Rx   d 6 41 3F 00 01 00 FF
   3.2049 1  047             Tx   d 7 84 00 00 00 00 5a 5f 
   3.2051 1  048             Tx   d 7 84 00 00 00 00 55 e4 
   3.2053 1  041             Tx   d 6 84 fa 00 03 06 aa 
   3.2054 1  042             Tx   d 6 84 fa 00 03 06 a5 
   3.2105 1  CA              Rx   d 8 54 00 80 00 05 66 70 00
   3.2106 1  CD              Rx   d 2 7E F4
   3.2108 1  153             Rx   d 6 41 3F 00 01 00 FF
   3.2110 1  386             Rx   d 5 0A 0A 0A 4D 00
   3.2115 1  CB              Rx   d 8 54 00 80 00 05 65 70 00
   3.2117 1  CE              Rx   d 2 80 00
   3.2119 1  154             Rx   d 6 41 3F 00 01 00 FF
   3.2121 1  387             Rx   d 5 0A 0A 0A 4D 00
   3.2157 1  047             Tx   d 7 c4 00 00 00 00 5a 0f 
   3.2159 1  048             Tx   d 7 c4 00 00 00 00 55 b4 
   3.2160 1  041             Tx   d 6 c4 fa 00 03 06 aa 
   3.2162 1  042             Tx   d 6 c4 fa 00 03 06 a5 
   3.2205 1  CA              Rx   d 8 54 00 80 00 05 66 10 00
   3.2206 1  CD              Rx   d 2 7E F4
   3.2208 1  153             Rx   d 6 41 3F 00 01 00 FF
   3.2215 1  CB              Rx   d 8 54 00 80 00 05 65 10 00
   3.2217 1  CE              Rx   d 2 80 00
   3.2219 1  154             Rx   d 6 41 3F 00 01 00 FF
   3.2250 1  047             Tx   d 7 04 00 00 00 00 5a ff 
   3.2251 1  048             Tx   d 7 04 00 00 00 00 55 44 
   3.2253 1  041             Tx   d 6 04 fa 00 03 06 aa 
   3.2254 1  042             Tx   d 6 04 fa 00 03 06 a5 
   3.2305 1  CA              Rx   d 8 54 00 80 00 05 66 30 00
   3.2306 1  CD              Rx   d 2 7E F4
   3.2308 1  153             Rx   d 6 41 3F 00 01 00 FF
   3.2315 1  CB              Rx   d 8 54 00 80 00 05 65 30 00
   3.2316 1  CE              Rx   d 2 80 00
   3.2319 1  154             Rx   d 6 41 3F 00 01 00 FF
   3.2346 1  047             Tx   d 7 44 00 00 00 00 5a af 
   3.2348 1  048             Tx   d 7 44 00 00 00 00 55 14 
   3.2349 1  041             Tx   d 6 44 fa 00 03 06 aa 
   3.2350 1  042             Tx   d 6 44 fa 00 03 06 a5 
   3.2405 1  CA              Rx   d 8 54 00 80 00 05 66 50 00
   3.2406 1  CD              Rx   d 2 7E F4
   3.2408 1  153             Rx   d 6 41 3F 00 01 00 FF
   3.2415 1  CB              Rx   d 8 54 00 80 00 05 65 50 00
   3.2417 1  CE              Rx   d 2 80 00
   3.2419 1  154             Rx   d 6 41 3F 00 01 00 FF
   3.2451 1  047             Tx   d 7 84 00 00 00 00 5a 5f 
   3.2453 1  048             Tx   d 7 84 00 00 00 00 55 e4 
