date Sat Sep 09 02:18:59 AM 2018
base hex  timestamps absolute
internal events logged
Begin Triggerblock Sat Sep 09 02:18:59 AM 2018
   0.0006 Start of measurement
   0.0008 Start of logging...
   0.0028 1  CA              Rx   d 8 54 00 80 00 00 DD 30 00
   2.7291 1  CD              Rx   d 2 7E F4
   2.7294 1  153             Rx   d 6 46 3F 00 01 00 FF
   2.7300 1  CB              Rx   d 8 54 00 80 00 00 DE 30 00
   2.7302 1  CE              Rx   d 2 80 00
   2.7303 1  154             Rx   d 6 46 3F 00 01 00 FF
   2.7390 1  CA              Rx   d 8 54 00 80 00 00 DD 50 00
   2.7391 1  CD              Rx   d 2 7E F4
   2.7393 1  153             Rx   d 6 46 3F 00 01 00 FF
   2.7400 1  CB              Rx   d 8 54 00 80 00 00 DD 50 00
   2.7401 1  CE              Rx   d 2 80 00
   2.7404 1  154             Rx   d 6 46 3F 00 01 00 FF
   2.7491 1  CA              Rx   d 8 54 00 80 00 00 DC 70 00
   2.7492 1  CD              Rx   d 2 7E F4
   2.7494 1  153             Rx   d 6 46 3F 00 01 00 FF
   2.7496 1  386             Rx   d 5 3A 3B 3A 53 45
   2.7498 1  684             Rx   d 8 00 00 00 00 00 00 00 00
   2.7501 1  CB              Rx   d 8 54 00 80 00 00 DD 70 00
   2.7502 1  CE              Rx   d 2 80 00
   2.7504 1  154             Rx   d 6 46 3F 00 01 00 FF
   2.7506 1  387             Rx   d 5 3A 3B 3A 53 D2
   2.7509 1  685             Rx   d 8 00 00 00 00 00 00 00 00
   2.7590 1  CA              Rx   d 8 54 00 80 00 00 DB 10 00
   2.7591 1  CD              Rx   d 2 7E F4
   2.7593 1  153             Rx   d 6 46 3F 00 01 00 FF
   2.7600 1  CB              Rx   d 8 54 00 80 00 00 DC 10 00
   2.7602 1  CE              Rx   d 2 80 00
   2.7604 1  154             Rx   d 6 46 3F 00 01 00 FF
   2.7690 1  CA              Rx   d 8 54 00 80 00 00 DB 30 00
   2.7691 1  CD              Rx   d 2 7E F4
   2.7693 1  153             Rx   d 6 46 3F 00 01 00 FF
   2.7700 1  CB              Rx   d 8 54 00 80 00 00 DB 30 00
   2.7701 1  CE              Rx   d 2 80 00
   2.7704 1  154             Rx   d 6 46 3F 00 01 00 FF
   2.7790 1  CA              Rx   d 8 54 00 80 00 00 DA 50 00
   2.7791 1  CD              Rx   d 2 7E F4
   2.7793 1  153             Rx   d 6 46 3F 00 01 00 FF
   2.7800 1  CB              Rx   d 8 54 00 80 00 00 DB 50 00
   2.7801 1  CE              Rx   d 2 80 00
   2.7803 1  154             Rx   d 6 46 3F 00 01 00 FF
   2.7890 1  CA              Rx   d 8 54 00 80 00 00 D9 70 00
   2.7891 1  CD              Rx   d 2 7E F4
   2.7893 1  153             Rx   d 6 46 3F 00 01 00 FF
   2.7900 1  CB              Rx   d 8 54 00 80 00 00 DA 70 00
   2.7902 1  CE              Rx   d 2 80 00
   2.7904 1  154             Rx   d 6 46 3F 00 01 00 FF
   2.7990 1  CA              Rx   d 8 54 00 80 00 00 D8 10 00
   2.7992 1  CD              Rx   d 2 7E F4
   2.7993 1  153             Rx   d 6 46 3F 00 01 00 FF
   2.8000 1  CB              Rx   d 8 54 00 80 00 00 D9 10 00
   2.8001 1  CE              Rx   d 2 80 00
   2.8003 1  154             Rx   d 6 46 3F 00 01 00 FF
   2.8090 1  CA              Rx   d 8 54 00 80 00 00 D7 30 00
   2.8091 1  CD              Rx   d 2 7E F4
   2.8094 1  153             Rx   d 6 46 3F 00 01 00 FF
   2.8100 1  CB              Rx   d 8 54 00 80 00 00 D8 30 00
   2.8102 1  CE              Rx   d 2 80 00
   2.8103 1  154             Rx   d 6 46 3F 00 01 00 FF
   2.8190 1  CA              Rx   d 8 54 00 80 00 00 D7 50 00
   2.8191 1  CD              Rx   d 2 7E F4
   2.8193 1  153             Rx   d 6 46 3F 00 01 00 FF
   2.8200 1  CB              Rx   d 8 54 00 80 00 00 D7 50 00
   2.8201 1  CE              Rx   d 2 80 00
   2.8204 1  154             Rx   d 6 46 3F 00 01 00 FF
   2.8290 1  CA              Rx   d 8 54 00 80 00 00 D6 70 00
   2.8291 1  CD              Rx   d 2 7E F4
   2.8293 1  153             Rx   d 6 46 3F 00 01 00 FF
   2.8300 1  CB              Rx   d 8 54 00 80 00 00 D7 70 00
   2.8301 1  CE              Rx   d 2 80 00
   2.8303 1  154             Rx   d 6 46 3F 00 01 00 FF
   2.8390 1  CA              Rx   d 8 54 00 80 00 00 D5 10 00
   2.8391 1  CD              Rx   d 2 7E F4
   2.8393 1  153             Rx   d 6 46 3F 00 01 00 FF
   2.8400 1  CB              Rx   d 8 54 00 80 00 00 D6 10 00
   2.8402 1  CE              Rx   d 2 80 00
   2.8404 1  154             Rx   d 6 46 3F 00 01 00 FF
   2.8490 1  CA              Rx   d 8 54 00 80 00 00 D4 30 00
   2.8491 1  CD              Rx   d 2 7E F4
   2.8493 1  153             Rx   d 6 46 3F 00 01 00 FF
   2.8495 1  386             Rx   d 5 42 43 42 40 30
   2.8500 1  CB              Rx   d 8 54 00 80 00 00 D5 30 00
   2.8501 1  CE              Rx   d 2 80 00
   2.8504 1  154             Rx   d 6 46 3F 00 01 00 FF
   2.8505 1  387             Rx   d 5 42 43 42 40 30
   2.8590 1  CA              Rx   d 8 54 00 80 00 00 D4 50 00
   2.8591 1  CD              Rx   d 2 7E F4
   2.8593 1  153             Rx   d 6 46 3F 00 01 00 FF
   2.8600 1  CB              Rx   d 8 54 00 80 00 00 D4 50 00
   2.8601 1  CE              Rx   d 2 80 00
   2.8603 1  154             Rx   d 6 46 3F 00 01 00 FF
   2.8690 1  CA              Rx   d 8 54 00 80 00 00 D3 70 00
   2.8691 1  CD              Rx   d 2 7E F4
   2.8693 1  153             Rx   d 6 46 3F 00 01 00 FF
   2.8700 1  CB              Rx   d 8 54 00 80 00 00 D4 70 00
   2.8702 1  CE              Rx   d 2 80 00
   2.8704 1  154             Rx   d 6 46 3F 00 01 00 FF
   2.8790 1  CA              Rx   d 8 54 00 80 00 00 D2 10 00
   2.8791 1  CD              Rx   d 2 7E F4
   2.8793 1  153             Rx   d 6 46 3F 00 01 00 FF
   2.8800 1  CB              Rx   d 8 54 00 80 00 00 D3 10 00
   2.8801 1  CE              Rx   d 2 80 00
   2.8803 1  154             Rx   d 6 46 3F 00 01 00 FF
   2.8891 1  CA              Rx   d 8 54 00 80 00 00 D1 30 00
   2.8894 1  153             Rx   d 6 46 3F 00 01 00 FF
   2.8900 1  CB              Rx   d 8 54 00 80 00 00 D3 30 00
   2.8902 1  CE              Rx   d 2 80 00
   2.8903 1  154             Rx   d 6 46 3F 00 01 00 FF
   2.8990 1  CA              Rx   d 8 54 00 80 00 00 D1 50 00
   2.8991 1  CD              Rx   d 2 7E F4
   2.8993 1  153             Rx   d 6 46 3F 00 01 00 FF
   2.9000 1  CB              Rx   d 8 54 00 80 00 00 D2 50 00
   2.9001 1  CE              Rx   d 2 80 00
   2.9004 1  154             Rx   d 6 46 3F 00 01 00 FF
   2.9090 1  CA              Rx   d 8 54 00 80 00 00 D0 70 00
   2.9091 1  CD              Rx   d 2 7E F4
   2.9093 1  153             Rx   d 6 46 3F 00 01 00 FF
   2.9100 1  CB              Rx   d 8 54 00 80 00 00 D1 70 00
   2.9101 1  CE              Rx   d 2 80 00
   2.9103 1  154             Rx   d 6 46 3F 00 01 00 FF
   2.9190 1  CA              Rx   d 8 54 00 80 00 00 CF 10 00
   2.9191 1  CD              Rx   d 2 7E F4
   2.9193 1  153             Rx   d 6 46 3F 00 01 00 FF
   2.9200 1  CB              Rx   d 8 54 00 80 00 00 D0 10 00
   2.9202 1  CE              Rx   d 2 80 00
   2.9203 1  154             Rx   d 6 46 3F 00 01 00 FF
   2.9290 1  CA              Rx   d 8 54 00 80 00 00 CE 30 00
   2.9291 1  CD              Rx   d 2 7E F4
   2.9293 1  153             Rx   d 6 46 3F 00 01 00 FF
   2.9300 1  CB              Rx   d 8 54 00 80 00 00 CF 30 00
   2.9301 1  CE              Rx   d 2 80 00
   2.9304 1  154             Rx   d 6 46 3F 00 01 00 FF
   2.9399 1  047             Tx   d 7 c4 00 00 00 00 5a 0f 
   2.9401 1  048             Tx   d 7 c4 00 00 00 00 55 b4 
   2.9403 1  041             Tx   d 6 c4 fa 00 03 06 aa 
   2.9404 1  042             Tx   d 6 c4 fa 00 03 06 a5 
   2.9391 1  CA              Rx   d 8 54 00 80 00 00 CE 50 00
   2.9392 1  CD              Rx   d 2 7E F4
   2.9394 1  153             Rx   d 6 46 3F 00 01 00 FF
   2.9401 1  CB              Rx   d 8 54 00 80 00 00 CE 50 00
   2.9402 1  CE              Rx   d 2 80 00
   2.9404 1  154             Rx   d 6 46 3F 00 01 00 FF
   2.9492 1  047             Tx   d 7 04 00 00 00 00 5a ff 
   2.9494 1  048             Tx   d 7 04 00 00 00 00 55 44 
   2.9496 1  041             Tx   d 6 04 fa 00 03 06 aa 
   2.9497 1  042             Tx   d 6 04 fa 00 03 06 a5 
   2.9490 1  CA              Rx   d 8 54 00 80 00 00 CD 70 00
   2.9492 1  CD              Rx   d 2 7E F4
   2.9494 1  153             Rx   d 6 46 3F 00 01 00 FF
   2.9496 1  386             Rx   d 5 4B 4A 4A 41 35
   2.9501 1  CB              Rx   d 8 54 00 80 00 00 CE 70 00
   2.9502 1  CE              Rx   d 2 80 00
   2.9504 1  154             Rx   d 6 46 3F 00 01 00 FF
   2.9506 1  387             Rx   d 5 4B 4A 4A 41 35
   2.9586 1  047             Tx   d 7 44 00 00 00 00 5a af 
   2.9588 1  048             Tx   d 7 44 00 00 00 00 55 14 
   2.9589 1  041             Tx   d 6 44 fa 00 03 06 aa 
   2.9591 1  042             Tx   d 6 44 fa 00 03 06 a5 
   2.9591 1  CA              Rx   d 8 54 00 80 00 00 CC 10 00
   2.9592 1  CD              Rx   d 2 7E F4
   2.9594 1  153             Rx   d 6 46 3F 00 01 00 FF
   2.9601 1  CB              Rx   d 8 54 00 80 00 00 CD 10 00
   2.9602 1  CE              Rx   d 2 80 00
   2.9604 1  154             Rx   d 6 46 3F 00 01 00 FF
   2.9684 1  047             Tx   d 7 84 00 00 00 00 5a 5f 
   2.9688 1  048             Tx   d 7 84 00 00 00 00 55 e4 
   2.9690 1  041             Tx   d 6 84 fa 00 03 06 aa 
   2.9692 1  042             Tx   d 6 84 fa 00 03 06 a5 
   2.9691 1  CA              Rx   d 8 54 00 80 00 00 CB 30 00
   2.9692 1  CD              Rx   d 2 7E F4
   2.9694 1  153             Rx   d 6 46 3F 00 01 00 FF
   2.9701 1  CB              Rx   d 8 54 00 80 00 00 CC 30 00
   2.9702 1  CE              Rx   d 2 80 00
   2.9704 1  154             Rx   d 6 46 3F 00 01 00 FF
   2.9788 1  047             Tx   d 7 c4 00 00 00 00 5a 0f 
   2.9790 1  048             Tx   d 7 c4 00 00 00 00 55 b4 
   2.9792 1  041             Tx   d 6 c4 fa 00 03 06 aa 
   2.9793 1  042             Tx   d 6 c4 fa 00 03 06 a5 
   2.9790 1  CA              Rx   d 8 54 00 80 00 00 CB 50 00
   2.9792 1  CD              Rx   d 2 7E F4
   2.9794 1  153             Rx   d 6 46 3F 00 01 00 FF
   2.9801 1  CB              Rx   d 8 54 00 80 00 00 CB 50 00
   2.9802 1  CE              Rx   d 2 80 00
   2.9804 1  154             Rx   d 6 46 3F 00 01 00 FF
   2.9885 1  047             Tx   d 7 04 00 00 00 00 5a ff 
   2.9888 1  048             Tx   d 7 04 00 00 00 00 55 44 
   2.9889 1  041             Tx   d 6 04 fa 00 03 06 aa 
   2.9891 1  042             Tx   d 6 04 fa 00 03 06 a5 
   2.9891 1  CA              Rx   d 8 54 00 80 00 00 CA 70 00
   2.9892 1  CD              Rx   d 2 7E F4
   2.9894 1  153             Rx   d 6 46 3F 00 01 00 FF
   2.9900 1  CB              Rx   d 8 54 00 80 00 00 CB 70 00
   2.9902 1  CE              Rx   d 2 80 00
   2.9904 1  154             Rx   d 6 46 3F 00 01 00 FF
   2.9985 1  047             Tx   d 7 44 00 00 00 00 5a af 
   2.9987 1  048             Tx   d 7 44 00 00 00 00 55 14 
   2.9989 1  041             Tx   d 6 44 fa 00 03 06 aa 
   2.9990 1  042             Tx   d 6 44 fa 00 03 06 a5 
   2.9991 1  CA              Rx   d 8 54 00 80 00 00 C9 10 00
   2.9992 1  CD              Rx   d 2 7E F4
   2.9994 1  153             Rx   d 6 46 3F 00 01 00 FF
   3.0001 1  CB              Rx   d 8 54 00 80 00 00 CA 10 00
   3.0002 1  CE              Rx   d 2 80 00
   3.0004 1  154             Rx   d 6 46 3F 00 01 00 FF
   3.0080 1  047             Tx   d 7 84 00 00 00 00 5a 5f 
   3.0082 1  048             Tx   d 7 84 00 00 00 00 55 e4 
   3.0083 1  041             Tx   d 6 84 fa 00 03 06 aa 
   3.0085 1  042             Tx   d 6 84 fa 00 03 06 a5 
   3.0091 1  CA              Rx   d 8 54 00 80 00 00 C9 30 00
   3.0092 1  CD              Rx   d 2 7E F4
   3.0094 1  153             Rx   d 6 46 3F 00 01 00 FF
   3.0101 1  CB              Rx   d 8 54 00 80 00 00 C9 30 00
   3.0102 1  CE              Rx   d 2 80 00
   3.0104 1  154             Rx   d 6 46 3F 00 01 00 FF
   3.0186 1  047             Tx   d 7 c4 00 00 00 00 5a 0f 
   3.0190 1  048             Tx   d 7 c4 00 00 00 00 55 b4 
   3.0192 1  041             Tx   d 6 c4 fa 00 03 06 aa 
   3.0193 1  042             Tx   d 6 c4 fa 00 03 06 a5 
   3.0191 1  CA              Rx   d 8 54 00 80 00 00 C8 50 00
   3.0192 1  CD              Rx   d 2 7E F4
   3.0194 1  153             Rx   d 6 46 3F 00 01 00 FF
   3.0200 1  CB              Rx   d 8 54 00 80 00 00 C8 50 00
   3.0202 1  CE              Rx   d 2 80 00
   3.0204 1  154             Rx   d 6 46 3F 00 01 00 FF
   3.0288 1  047             Tx   d 7 04 00 00 00 00 5a ff 
   3.0290 1  048             Tx   d 7 04 00 00 00 00 55 44 
   3.0292 1  041             Tx   d 6 04 fa 00 03 06 aa 
   3.0293 1  042             Tx   d 6 04 fa 00 03 06 a5 
   3.0290 1  CA              Rx   d 8 54 00 80 00 00 C7 70 00
   3.0292 1  CD              Rx   d 2 7E F4
   3.0294 1  153             Rx   d 6 46 3F 00 01 00 FF
   3.0301 1  CB              Rx   d 8 54 00 80 00 00 C8 70 00
   3.0302 1  CE              Rx   d 2 80 00
   3.0304 1  154             Rx   d 6 46 3F 00 01 00 FF
   3.0387 1  047             Tx   d 7 44 00 00 00 00 5a af 
   3.0390 1  048             Tx   d 7 44 00 00 00 00 55 14 
   3.0391 1  041             Tx   d 6 44 fa 00 03 06 aa 
   3.0392 1  042             Tx   d 6 44 fa 00 03 06 a5 
   3.0391 1  CA              Rx   d 8 54 00 80 00 00 C6 10 00
   3.0392 1  CD              Rx   d 2 7E F4
   3.0394 1  153             Rx   d 6 46 3F 00 01 00 FF
   3.0401 1  CB              Rx   d 8 54 00 80 00 00 C7 10 00
   3.0402 1  CE              Rx   d 2 80 00
   3.0404 1  154             Rx   d 6 46 3F 00 01 00 FF
   3.0485 1  047             Tx   d 7 84 00 00 00 00 5a 5f 
   3.0486 1  048             Tx   d 7 84 00 00 00 00 55 e4 
   3.0488 1  041             Tx   d 6 84 fa 00 03 06 aa 
   3.0489 1  042             Tx   d 6 84 fa 00 03 06 a5 
   3.0491 1  CA              Rx   d 8 54 00 80 00 00 C6 30 00
   3.0492 1  CD              Rx   d 2 7E F4
   3.0494 1  153             Rx   d 6 46 3F 00 01 00 FF
   3.0496 1  386             Rx   d 5 53 53 52 42 41
   3.0501 1  CB              Rx   d 8 54 00 80 00 00 C6 30 00
   3.0502 1  CE              Rx   d 2 80 00
   3.0504 1  154             Rx   d 6 46 3F 00 01 00 FF
   3.0506 1  387             Rx   d 5 53 53 52 42 42
   3.0585 1  047             Tx   d 7 c4 00 00 00 00 5a 0f 
   3.0587 1  048             Tx   d 7 c4 00 00 00 00 55 b4 
   3.0589 1  041             Tx   d 6 c4 fa 00 03 06 aa 
   3.0590 1  042             Tx   d 6 c4 fa 00 03 06 a5 
   3.0591 1  CA              Rx   d 8 54 00 80 00 00 C5 50 00
   3.0592 1  CD              Rx   d 2 7E F4
   3.0594 1  153             Rx   d 6 46 3F 00 01 00 FF
   3.0601 1  CB              Rx   d 8 54 00 80 00 00 C5 50 00
   3.0602 1  CE              Rx   d 2 80 00
   3.0604 1  154             Rx   d 6 46 3F 00 01 00 FF
   3.0686 1  047             Tx   d 7 04 00 00 00 00 5a ff 
   3.0690 1  048             Tx   d 7 04 00 00 00 00 55 44 
   3.0691 1  041             Tx   d 6 04 fa 00 03 06 aa 
   3.0693 1  042             Tx   d 6 04 fa 00 03 06 a5 
   3.0691 1  CA              Rx   d 8 54 00 80 00 00 C4 70 00
   3.0692 1  CD              Rx   d 2 7E F4
   3.0694 1  153             Rx   d 6 46 3F 00 01 00 FF
   3.0700 1  CB              Rx   d 8 54 00 80 00 00 C5 70 00
   3.0702 1  CE              Rx   d 2 80 00
   3.0704 1  154             Rx   d 6 46 3F 00 01 00 FF
   3.0788 1  047             Tx   d 7 44 00 00 00 00 5a af 
   3.0790 1  048             Tx   d 7 44 00 00 00 00 55 14 
   3.0792 1  041             Tx   d 6 44 fa 00 03 06 aa 
   3.0793 1  042             Tx   d 6 44 fa 00 03 06 a5 
   3.0790 1  CA              Rx   d 8 54 00 80 00 00 C3 10 00
   3.0792 1  CD              Rx   d 2 7E F4
   3.0794 1  153             Rx   d 6 46 3F 00 01 00 FF
   3.0801 1  CB              Rx   d 8 54 00 80 00 00 C4 10 00
   3.0802 1  CE              Rx   d 2 80 00
   3.0804 1  154             Rx   d 6 46 3F 00 01 00 FF
   3.0887 1  047             Tx   d 7 84 00 00 00 00 5a 5f 
   3.0890 1  048             Tx   d 7 84 00 00 00 00 55 e4 
   3.0892 1  041             Tx   d 6 84 fa 00 03 06 aa 
   3.0893 1  042             Tx   d 6 84 fa 00 03 06 a5 
   3.0891 1  CA              Rx   d 8 54 00 80 00 00 C3 30 00
   3.0892 1  CD              Rx   d 2 7E F4
   3.0894 1  153             Rx   d 6 46 3F 00 01 00 FF
   3.0901 1  CB              Rx   d 8 54 00 80 00 00 C3 30 00
   3.0902 1  CE              Rx   d 2 80 00
   3.0904 1  154             Rx   d 6 46 3F 00 01 00 FF
   3.0985 1  047             Tx   d 7 c4 00 00 00 00 5a 0f 
   3.0989 1  048             Tx   d 7 c4 00 00 00 00 55 b4 
   3.0990 1  041             Tx   d 6 c4 fa 00 03 06 aa 
   3.0992 1  042             Tx   d 6 c4 fa 00 03 06 a5 
   3.0991 1  CA              Rx   d 8 54 00 80 00 00 C2 50 00
   3.0992 1  CD              Rx   d 2 7E F4
   3.0994 1  153             Rx   d 6 46 3F 00 01 00 FF
   3.1000 1  CB              Rx   d 8 54 00 80 00 00 C2 50 00
   3.1002 1  CE              Rx   d 2 80 00
   3.1004 1  154             Rx   d 6 46 3F 00 01 00 FF
   3.1081 1  047             Tx   d 7 04 00 00 00 00 5a ff 
   3.1083 1  048             Tx   d 7 04 00 00 00 00 55 44 
   3.1085 1  041             Tx   d 6 04 fa 00 03 06 aa 
   3.1086 1  042             Tx   d 6 04 fa 00 03 06 a5 
   3.1090 1  CA              Rx   d 8 54 00 80 00 00 C1 70 00
   3.1092 1  CD              Rx   d 2 7E F4
   3.1094 1  153             Rx   d 6 46 3F 00 01 00 FF
   3.1101 1  CB              Rx   d 8 54 00 80 00 00 C2 70 00
   3.1102 1  CE              Rx   d 2 80 00
   3.1104 1  154             Rx   d 6 46 3F 00 01 00 FF
   3.1188 1  047             Tx   d 7 44 00 00 00 00 5a af 
   3.1191 1  048             Tx   d 7 44 00 00 00 00 55 14 
   3.1193 1  041             Tx   d 6 44 fa 00 03 06 aa 
   3.1194 1  042             Tx   d 6 44 fa 00 03 06 a5 
   3.1191 1  CA              Rx   d 8 54 00 80 00 00 C0 10 00
   3.1192 1  CD              Rx   d 2 7E F4
   3.1194 1  153             Rx   d 6 46 3F 00 01 00 FF
   3.1201 1  CB              Rx   d 8 54 00 80 00 00 C1 10 00
   3.1202 1  CE              Rx   d 2 80 00
   3.1204 1  154             Rx   d 6 46 3F 00 01 00 FF
   3.1298 1  047             Tx   d 7 84 00 00 00 00 5a 5f 
   3.1300 1  048             Tx   d 7 84 00 00 00 00 55 e4 
   3.1302 1  041             Tx   d 6 84 fa 00 03 06 aa 
   3.1304 1  042             Tx   d 6 84 fa 00 03 06 a5 
   3.1291 1  CA              Rx   d 8 54 00 80 00 00 C0 30 00
   3.1292 1  CD              Rx   d 2 7E F4
   3.1294 1  153             Rx   d 6 46 3F 00 01 00 FF
   3.1301 1  CB              Rx   d 8 54 00 80 00 00 C0 30 00
   3.1302 1  CE              Rx   d 2 80 00
   3.1304 1  154             Rx   d 6 46 3F 00 01 00 FF
   3.1394 1  047             Tx   d 7 c4 00 00 00 00 5a 0f 
   3.1397 1  048             Tx   d 7 c4 00 00 00 00 55 b4 
   3.1399 1  041             Tx   d 6 c4 fa 00 03 06 aa 
   3.1400 1  042             Tx   d 6 c4 fa 00 03 06 a5 
   3.1391 1  CA              Rx   d 8 54 00 80 00 00 BF 50 00
   3.1392 1  CD              Rx   d 2 7E F4
   3.1394 1  153             Rx   d 6 46 3F 00 01 00 FF
   3.1401 1  CB              Rx   d 8 54 00 80 00 00 BF 50 00
   3.1402 1  CE              Rx   d 2 80 00
   3.1404 1  154             Rx   d 6 46 3F 00 01 00 FF
   3.1489 1  047             Tx   d 7 04 00 00 00 00 5a ff 
   3.1491 1  048             Tx   d 7 04 00 00 00 00 55 44 
   3.1493 1  041             Tx   d 6 04 fa 00 03 06 aa 
   3.1494 1  042             Tx   d 6 04 fa 00 03 06 a5 
   3.1491 1  CA              Rx   d 8 54 00 80 00 00 BE 70 00
   3.1492 1  CD              Rx   d 2 7E F4
   3.1494 1  153             Rx   d 6 46 3F 00 01 00 FF
   3.1496 1  386             Rx   d 5 5B 5B 5A 43 33
   3.1500 1  CB              Rx   d 8 54 00 80 00 00 BF 70 00
   3.1502 1  CE              Rx   d 2 80 00
   3.1504 1  154             Rx   d 6 46 3F 00 01 00 FF
   3.1506 1  387             Rx   d 5 5B 5B 5A 43 33
   3.1590 1  047             Tx   d 7 44 00 00 00 00 5a af 
   3.1592 1  048             Tx   d 7 44 00 00 00 00 55 14 
   3.1594 1  041             Tx   d 6 44 fa 00 03 06 aa 
   3.1595 1  042             Tx   d 6 44 fa 00 03 06 a5 
   3.1590 1  CA              Rx   d 8 54 00 80 00 00 BD 10 00
   3.1592 1  CD              Rx   d 2 7E F4
   3.1594 1  153             Rx   d 6 46 3F 00 01 00 FF
   3.1601 1  CB              Rx   d 8 54 00 80 00 00 BE 10 00
   3.1602 1  CE              Rx   d 2 80 00
   3.1604 1  154             Rx   d 6 46 3F 00 01 00 FF
   3.1689 1  047             Tx   d 7 84 00 00 00 00 5a 5f 
   3.1691 1  048             Tx   d 7 84 00 00 00 00 55 e4 
   3.1692 1  041             Tx   d 6 84 fa 00 03 06 aa 
   3.1694 1  042             Tx   d 6 84 fa 00 03 06 a5 
   3.1691 1  CA              Rx   d 8 54 00 80 00 00 BD 30 00
   3.1692 1  CD              Rx   d 2 7E F4
   3.1694 1  153             Rx   d 6 46 3F 00 01 00 FF
   3.1701 1  CB              Rx   d 8 54 00 80 00 00 BD 30 00
   3.1702 1  CE              Rx   d 2 80 00
   3.1704 1  154             Rx   d 6 46 3F 00 01 00 FF
   3.1785 1  047             Tx   d 7 c4 00 00 00 00 5a 0f 
   3.1787 1  048             Tx   d 7 c4 00 00 00 00 55 b4 
   3.1789 1  041             Tx   d 6 c4 fa 00 03 06 aa 
   3.1790 1  042             Tx   d 6 c4 fa 00 03 06 a5 
   3.1791 1  CA              Rx   d 8 54 00 80 00 00 BC 50 00
   3.1792 1  CD              Rx   d 2 7E F4
   3.1794 1  153             Rx   d 6 46 3F 00 01 00 FF
   3.1800 1  CB              Rx   d 8 54 00 80 00 00 BC 50 00
   3.1802 1  CE              Rx   d 2 80 00
   3.1804 1  154             Rx   d 6 46 3F 00 01 00 FF
   3.1886 1  047             Tx   d 7 04 00 00 00 00 5a ff 
   3.1889 1  048             Tx   d 7 04 00 00 00 00 55 44 
   3.1891 1  041             Tx   d 6 04 fa 00 03 06 aa 
   3.1892 1  042             Tx   d 6 04 fa 00 03 06 a5 
   3.1890 1  CA              Rx   d 8 54 00 80 00 00 BB 70 00
   3.1892 1  CD              Rx   d 2 7E F4
   3.1894 1  153             Rx   d 6 46 3F 00 01 00 FF
   3.1901 1  CB              Rx   d 8 54 00 80 00 00 BC 70 00
   3.1902 1  CE              Rx   d 2 80 00
   3.1904 1  154             Rx   d 6 46 3F 00 01 00 FF
   3.1982 1  047             Tx   d 7 44 00 00 00 00 5a af 
   3.1984 1  048             Tx   d 7 44 00 00 00 00 55 14 
   3.1986 1  041             Tx   d 6 44 fa 00 03 06 aa 
   3.1988 1  042             Tx   d 6 44 fa 00 03 06 a5 
   3.1991 1  CA              Rx   d 8 54 00 80 00 00 BA 10 00
   3.1992 1  CD              Rx   d 2 7E F4
   3.1994 1  153             Rx   d 6 46 3F 00 01 00 FF
   3.2001 1  CB              Rx   d 8 54 00 80 00 00 BB 10 00
   3.2078 1  047             Tx   d 7 84 00 00 00 00 5a 5f 
   3.2080 1  048             Tx   d 7 84 00 00 00 00 55 e4 
   3.2081 1  041             Tx   d 6 84 fa 00 03 06 aa 
   3.2082 1  042             Tx   d 6 84 fa 00 03 06 a5 
   3.2002 1  CE              Rx   d 2 80 00
   3.2004 1  154             Rx   d 6 46 3F 00 01 00 FF
   3.2091 1  CA              Rx   d 8 54 00 80 00 00 BA 30 00
   3.2092 1  CD              Rx   d 2 7E F4
   3.2094 1  153             Rx   d 6 46 3F 00 01 00 FF
   3.2101 1  CB              Rx   d 8 54 00 80 00 00 BA 30 00
   3.2102 1  CE              Rx   d 2 80 00
   3.2104 1  154             Rx   d 6 46 3F 00 01 00 FF
   3.2188 1  047             Tx   d 7 c4 00 00 00 00 5a 0f 
   3.2190 1  048             Tx   d 7 c4 00 00 00 00 55 b4 
   3.2191 1  041             Tx   d 6 c4 fa 00 03 06 aa 
   3.2193 1  042             Tx   d 6 c4 fa 00 03 06 a5 
   3.2190 1  CA              Rx   d 8 54 00 80 00 00 B9 50 00
   3.2192 1  CD              Rx   d 2 7E F4
   3.2194 1  153             Rx   d 6 46 3F 00 01 00 FF
   3.2201 1  CB              Rx   d 8 54 00 80 00 00 B9 50 00
   3.2202 1  CE              Rx   d 2 80 00
   3.2204 1  154             Rx   d 6 46 3F 00 01 00 FF
   3.2284 1  047             Tx   d 7 04 00 00 00 00 5a ff 
   3.2286 1  048             Tx   d 7 04 00 00 00 00 55 44 
   3.2288 1  041             Tx   d 6 04 fa 00 03 06 aa 
   3.2289 1  042             Tx   d 6 04 fa 00 03 06 a5 
   3.2291 1  CA              Rx   d 8 54 00 80 00 00 B8 70 00
   3.2292 1  CD              Rx   d 2 7E F4
   3.2294 1  153             Rx   d 6 46 3F 00 01 00 FF
   3.2300 1  CB              Rx   d 8 54 00 80 00 00 B9 70 00
   3.2302 1  CE              Rx   d 2 80 00
   3.2304 1  154             Rx   d 6 46 3F 00 01 00 FF
   3.2390 1  047             Tx   d 7 44 00 00 00 00 5a af 
   3.2393 1  048             Tx   d 7 44 00 00 00 00 55 14 
   3.2394 1  041             Tx   d 6 44 fa 00 03 06 aa 
   3.2396 1  042             Tx   d 6 44 fa 00 03 06 a5 
   3.2390 1  CA              Rx   d 8 54 00 80 00 00 B7 10 00
   3.2392 1  CD              Rx   d 2 7E F4
   3.2394 1  153             Rx   d 6 46 3F 00 01 00 FF
   3.2401 1  CB              Rx   d 8 54 00 80 00 00 B8 10 00
   3.2402 1  CE              Rx   d 2 80 00
   3.2404 1  154             Rx   d 6 46 3F 00 01 00 FF
   3.2487 1  047             Tx   d 7 84 00 00 00 00 5a 5f 
   3.2489 1  048             Tx   d 7 84 00 00 00 00 55 e4 
   3.2490 1  041             Tx   d 6 84 fa 00 03 06 aa 
   3.2492 1  042             Tx   d 6 84 fa 00 03 06 a5 
   3.2491 1  CA              Rx   d 8 54 00 80 00 00 B6 30 00
   3.2492 1  CD              Rx   d 2 7E F4
   3.2494 1  153             Rx   d 6 46 3F 00 01 00 FF
   3.2496 1  386             Rx   d 5 63 62 62 44 30
   3.2498 1  684             Rx   d 8 00 00 00 00 00 00 00 00
   3.2501 1  CB              Rx   d 8 54 00 80 00 00 B8 30 00
   3.2502 1  CE              Rx   d 2 80 00
   3.2504 1  154             Rx   d 6 46 3F 00 01 00 FF
   3.2506 1  387             Rx   d 5 63 62 62 44 30
   3.2508 1  685             Rx   d 8 00 00 00 00 00 00 00 00
   3.2596 1  047             Tx   d 7 c4 00 00 00 00 5a 0f 
   3.2598 1  048             Tx   d 7 c4 00 00 00 00 55 b4 
   3.2600 1  041             Tx   d 6 c4 fa 00 03 06 aa 
   3.2602 1  042             Tx   d 6 c4 fa 00 03 06 a5 
   3.2591 1  CA              Rx   d 8 54 00 80 00 00 B6 50 00
   3.2592 1  CD              Rx   d 2 7E F4
   3.2594 1  153             Rx   d 6 46 3F 00 01 00 FF
   3.2600 1  CB              Rx   d 8 54 00 80 00 00 B7 50 00
   3.2602 1  CE              Rx   d 2 80 00
   3.2604 1  154             Rx   d 6 46 3F 00 01 00 FF
   3.2691 1  047             Tx   d 7 04 00 00 00 00 5a ff 
   3.2693 1  048             Tx   d 7 04 00 00 00 00 55 44 
   3.2695 1  041             Tx   d 6 04 fa 00 03 06 aa 
   3.2696 1  042             Tx   d 6 04 fa 00 03 06 a5 
   3.2690 1  CA              Rx   d 8 54 00 80 00 00 B5 70 00
   3.2692 1  CD              Rx   d 2 7E F4
   3.2694 1  153             Rx   d 6 46 3F 00 01 00 FF
   3.2701 1  CB              Rx   d 8 54 00 80 00 00 B6 70 00
   3.2702 1  CE              Rx   d 2 80 00
   3.2704 1  154             Rx   d 6 46 3F 00 01 00 FF
   3.2790 1  047             Tx   d 7 44 00 00 00 00 5a af 
   3.2792 1  048             Tx   d 7 44 00 00 00 00 55 14 
   3.2794 1  041             Tx   d 6 44 fa 00 03 06 aa 
   3.2795 1  042             Tx   d 6 44 fa 00 03 06 a5 
   3.2791 1  CA              Rx   d 8 54 00 80 00 00 B4 10 00
   3.2792 1  CD              Rx   d 2 7E F4
   3.2794 1  153             Rx   d 6 46 3F 00 01 00 FF
   3.2801 1  CB              Rx   d 8 54 00 80 00 00 B5 10 00
   3.2802 1  CE              Rx   d 2 80 00
   3.2804 1  154             Rx   d 6 46 3F 00 01 00 FF
   3.2885 1  047             Tx   d 7 84 00 00 00 00 5a 5f 
   3.2887 1  048             Tx   d 7 84 00 00 00 00 55 e4 
   3.2889 1  041             Tx   d 6 84 fa 00 03 06 aa 
   3.2891 1  042             Tx   d 6 84 fa 00 03 06 a5 
   3.2891 1  CA              Rx   d 8 54 00 80 00 00 B3 30 00
   3.2892 1  CD              Rx   d 2 7E F4
   3.2894 1  153             Rx   d 6 46 3F 00 01 00 FF
   3.2901 1  CB              Rx   d 8 54 00 80 00 00 B4 30 00
   3.2902 1  CE              Rx   d 2 80 00
   3.2904 1  154             Rx   d 6 46 3F 00 01 00 FF
   3.2984 1  047             Tx   d 7 c4 00 00 00 00 5a 0f 
   3.2987 1  048             Tx   d 7 c4 00 00 00 00 55 b4 
   3.2988 1  041             Tx   d 6 c4 fa 00 03 06 aa 
   3.2990 1  042             Tx   d 6 c4 fa 00 03 06 a5 
   3.2991 1  CA              Rx   d 8 54 00 80 00 00 B3 50 00
   3.2992 1  CD              Rx   d 2 7E F4
   3.2994 1  153             Rx   d 6 46 3F 00 01 00 FF
   3.3001 1  CB              Rx   d 8 54 00 80 00 00 B3 50 00
   3.3002 1  CE              Rx   d 2 80 00
   3.3004 1  154             Rx   d 6 46 3F 00 01 00 FF
   3.3087 1  047             Tx   d 7 04 00 00 00 00 5a ff 
   3.3089 1  048             Tx   d 7 04 00 00 00 00 55 44 
   3.3090 1  041             Tx   d 6 04 fa 00 03 06 aa 
   3.3092 1  042             Tx   d 6 04 fa 00 03 06 a5 
   3.3091 1  CA              Rx   d 8 54 00 80 00 00 B2 70 00
   3.3092 1  CD              Rx   d 2 7E F4
   3.3094 1  153             Rx   d 6 46 3F 00 01 00 FF
   3.3100 1  CB              Rx   d 8 54 00 80 00 00 B3 70 00
   3.3102 1  CE              Rx   d 2 80 00
   3.3104 1  154             Rx   d 6 46 3F 00 01 00 FF
   3.3184 1  047             Tx   d 7 44 00 00 00 00 5a af 
   3.3186 1  048             Tx   d 7 44 00 00 00 00 55 14 
   3.3188 1  041             Tx   d 6 44 fa 00 03 06 aa 
   3.3189 1  042             Tx   d 6 44 fa 00 03 06 a5 
   3.3190 1  CA              Rx   d 8 54 00 80 00 00 B1 10 00
   3.3192 1  CD              Rx   d 2 7E F4
   3.3194 1  153             Rx   d 6 46 3F 00 01 00 FF
   3.3201 1  CB              Rx   d 8 54 00 80 00 00 B2 10 00
   3.3280 1  047             Tx   d 7 84 00 00 00 00 5a 5f 
   3.3282 1  048             Tx   d 7 84 00 00 00 00 55 e4 
   3.3283 1  041             Tx   d 6 84 fa 00 03 06 aa 
   3.3285 1  042             Tx   d 6 84 fa 00 03 06 a5 
   3.3202 1  CE              Rx   d 2 80 00
   3.3204 1  154             Rx   d 6 46 3F 00 01 00 FF
   3.3291 1  CA              Rx   d 8 54 00 80 00 00 B0 30 00
   3.3292 1  CD              Rx   d 2 7E F4
   3.3294 1  153             Rx   d 6 46 3F 00 01 00 FF
   3.3301 1  CB              Rx   d 8 54 00 80 00 00 B1 30 00
   3.3302 1  CE              Rx   d 2 80 00
   3.3304 1  154             Rx   d 6 46 3F 00 01 00 FF
   3.3381 1  047             Tx   d 7 c4 00 00 00 00 5a 0f 
   3.3383 1  048             Tx   d 7 c4 00 00 00 00 55 b4 
   3.3384 1  041             Tx   d 6 c4 fa 00 03 06 aa 
   3.3385 1  042             Tx   d 6 c4 fa 00 03 06 a5 
   3.3391 1  CA              Rx   d 8 54 00 80 00 00 B0 50 00
   3.3392 1  CD              Rx   d 2 7E F4
   3.3394 1  153             Rx   d 6 46 3F 00 01 00 FF
   3.3400 1  CB              Rx   d 8 54 00 80 00 00 B0 50 00
   3.3477 1  047             Tx   d 7 04 00 00 00 00 5a ff 
   3.3479 1  048             Tx   d 7 04 00 00 00 00 55 44 
   3.3480 1  041             Tx   d 6 04 fa 00 03 06 aa 
   3.3481 1  042             Tx   d 6 04 fa 00 03 06 a5 
   3.3402 1  CE              Rx   d 2 80 00
   3.3404 1  154             Rx   d 6 46 3F 00 01 00 FF
   3.3490 1  CA              Rx   d 8 54 00 80 00 00 AF 70 00
   3.3492 1  CD              Rx   d 2 7E F4
   3.3494 1  153             Rx   d 6 46 3F 00 01 00 FF
   3.3496 1  386             Rx   d 5 6B 6B 6A 45 31
   3.3501 1  CB              Rx   d 8 54 00 80 00 00 B0 70 00
   3.3502 1  CE              Rx   d 2 80 00
   3.3504 1  154             Rx   d 6 46 3F 00 01 00 FF
   3.3506 1  387             Rx   d 5 6B 6B 6A 45 31
   3.3591 1  047             Tx   d 7 44 00 00 00 00 5a af 
   3.3593 1  048             Tx   d 7 44 00 00 00 00 55 14 
   3.3595 1  041             Tx   d 6 44 fa 00 03 06 aa 
   3.3596 1  042             Tx   d 6 44 fa 00 03 06 a5 
   3.3591 1  CA              Rx   d 8 54 00 80 00 00 AE 10 00
   3.3592 1  CD              Rx   d 2 7E F4
   3.3594 1  153             Rx   d 6 46 3F 00 01 00 FF
   3.3601 1  CB              Rx   d 8 54 00 80 00 00 AF 10 00
   3.3602 1  CE              Rx   d 2 80 00
   3.3604 1  154             Rx   d 6 46 3F 00 01 00 FF
   3.3686 1  047             Tx   d 7 84 00 00 00 00 5a 5f 
   3.3689 1  048             Tx   d 7 84 00 00 00 00 55 e4 
   3.3690 1  041             Tx   d 6 84 fa 00 03 06 aa 
   3.3692 1  042             Tx   d 6 84 fa 00 03 06 a5 
   3.3691 1  CA              Rx   d 8 54 00 80 00 00 AD 30 00
   3.3692 1  CD              Rx   d 2 7E F4
   3.3694 1  153             Rx   d 6 46 3F 00 01 00 FF
   3.3701 1  CB              Rx   d 8 54 00 80 00 00 AE 30 00
   3.3702 1  CE              Rx   d 2 80 00
   3.3704 1  154             Rx   d 6 46 3F 00 01 00 FF
   3.3788 1  047             Tx   d 7 c4 00 00 00 00 5a 0f 
   3.3791 1  048             Tx   d 7 c4 00 00 00 00 55 b4 
   3.3792 1  041             Tx   d 6 c4 fa 00 03 06 aa 
   3.3794 1  042             Tx   d 6 c4 fa 00 03 06 a5 
   3.3790 1  CA              Rx   d 8 54 00 80 00 00 AD 50 00
   3.3792 1  CD              Rx   d 2 7E F4
   3.3794 1  153             Rx   d 6 46 3F 00 01 00 FF
   3.3801 1  CB              Rx   d 8 54 00 80 00 00 AD 50 00
   3.3802 1  CE              Rx   d 2 80 00
   3.3804 1  154             Rx   d 6 46 3F 00 01 00 FF
   3.3883 1  047             Tx   d 7 04 00 00 00 00 5a ff 
   3.3885 1  048             Tx   d 7 04 00 00 00 00 55 44 
   3.3887 1  041             Tx   d 6 04 fa 00 03 06 aa 
   3.3889 1  042             Tx   d 6 04 fa 00 03 06 a5 
   3.3891 1  CA              Rx   d 8 54 00 80 00 00 AC 70 00
   3.3892 1  CD              Rx   d 2 7E F4
   3.3894 1  153             Rx   d 6 46 3F 00 01 00 FF
   3.3900 1  CB              Rx   d 8 54 00 80 00 00 AD 70 00
   3.3978 1  047             Tx   d 7 44 00 00 00 00 5a af 
   3.3980 1  048             Tx   d 7 44 00 00 00 00 55 14 
   3.3981 1  041             Tx   d 6 44 fa 00 03 06 aa 
   3.3982 1  042             Tx   d 6 44 fa 00 03 06 a5 
   3.3902 1  CE              Rx   d 2 80 00
   3.3904 1  154             Rx   d 6 46 3F 00 01 00 FF
   3.3990 1  CA              Rx   d 8 54 00 80 00 00 AB 10 00
   3.3992 1  CD              Rx   d 2 7E F4
   3.3994 1  153             Rx   d 6 46 3F 00 01 00 FF
   3.4001 1  CB              Rx   d 8 54 00 80 00 00 AC 10 00
   3.4002 1  CE              Rx   d 2 80 00
   3.4004 1  154             Rx   d 6 46 3F 00 01 00 FF
   3.4086 1  047             Tx   d 7 84 00 00 00 00 5a 5f 
   3.4088 1  048             Tx   d 7 84 00 00 00 00 55 e4 
   3.4090 1  041             Tx   d 6 84 fa 00 03 06 aa 
   3.4091 1  042             Tx   d 6 84 fa 00 03 06 a5 
   3.4091 1  CA              Rx   d 8 54 00 80 00 00 AA 30 00
   3.4092 1  CD              Rx   d 2 7E F4
   3.4094 1  153             Rx   d 6 46 3F 00 01 00 FF
   3.4101 1  CB              Rx   d 8 54 00 80 00 00 AB 30 00
   3.4102 1  CE              Rx   d 2 80 00
   3.4104 1  154             Rx   d 6 46 3F 00 01 00 FF
   3.4185 1  047             Tx   d 7 c4 00 00 00 00 5a 0f 
   3.4187 1  048             Tx   d 7 c4 00 00 00 00 55 b4 
   3.4189 1  041             Tx   d 6 c4 fa 00 03 06 aa 
   3.4190 1  042             Tx   d 6 c4 fa 00 03 06 a5 
   3.4191 1  CA              Rx   d 8 54 00 80 00 00 AA 50 00
   3.4192 1  CD              Rx   d 2 7E F4
   3.4194 1  153             Rx   d 6 46 3F 00 01 00 FF
   3.4200 1  CB              Rx   d 8 54 00 80 00 00 AA 50 00
   3.4202 1  CE              Rx   d 2 80 00
   3.4204 1  154             Rx   d 6 46 3F 00 01 00 FF
   3.4288 1  047             Tx   d 7 04 00 00 00 00 5a ff 
   3.4290 1  048             Tx   d 7 04 00 00 00 00 55 44 
   3.4292 1  041             Tx   d 6 04 fa 00 03 06 aa 
   3.4293 1  042             Tx   d 6 04 fa 00 03 06 a5 
   3.4290 1  CA              Rx   d 8 54 00 80 00 00 A9 70 00
   3.4292 1  CD              Rx   d 2 7E F4
   3.4294 1  153             Rx   d 6 46 3F 00 01 00 FF
   3.4301 1  CB              Rx   d 8 54 00 80 00 00 AA 70 00
   3.4302 1  CE              Rx   d 2 80 00
   3.4304 1  154             Rx   d 6 46 3F 00 01 00 FF
   3.4383 1  047             Tx   d 7 44 00 00 00 00 5a af 
   3.4385 1  048             Tx   d 7 44 00 00 00 00 55 14 
   3.4387 1  041             Tx   d 6 44 fa 00 03 06 aa 
   3.4388 1  042             Tx   d 6 44 fa 00 03 06 a5 
   3.4391 1  CA              Rx   d 8 54 00 80 00 00 A8 10 00
   3.4392 1  CD              Rx   d 2 7E F4
   3.4394 1  153             Rx   d 6 46 3F 00 01 00 FF
   3.4401 1  CB              Rx   d 8 54 00 80 00 00 A9 10 00
   3.4402 1  CE              Rx   d 2 80 00
   3.4482 1  047             Tx   d 7 84 00 00 00 00 5a 5f 
   3.4404 1  154             Rx   d 6 46 3F 00 01 00 FF
   3.4490 1  048             Tx   d 7 84 00 00 00 00 55 e4 
   3.4492 1  041             Tx   d 6 84 fa 00 03 06 aa 
   3.4494 1  042             Tx   d 6 84 fa 00 03 06 a5 
   3.4491 1  CA              Rx   d 8 54 00 80 00 00 A8 30 00
   3.4492 1  CD              Rx   d 2 7E F4
   3.4494 1  153             Rx   d 6 46 3F 00 01 00 FF
   3.4496 1  386             Rx   d 5 73 73 70 46 31
   3.4501 1  CB              Rx   d 8 54 00 80 00 00 A8 30 00
   3.4502 1  CE              Rx   d 2 80 00
   3.4504 1  154             Rx   d 6 46 3F 00 01 00 FF
   3.4506 1  387             Rx   d 5 73 73 70 46 31
   3.4593 1  047             Tx   d 7 c4 00 00 00 00 5a 0f 
   3.4595 1  048             Tx   d 7 c4 00 00 00 00 55 b4 
   3.4596 1  041             Tx   d 6 c4 fa 00 03 06 aa 
   3.4598 1  042             Tx   d 6 c4 fa 00 03 06 a5 
   3.4590 1  CA              Rx   d 8 54 00 80 00 00 A7 50 00
   3.4592 1  CD              Rx   d 2 7E F4
   3.4594 1  153             Rx   d 6 46 3F 00 01 00 FF
   3.4601 1  CB              Rx   d 8 54 00 80 00 00 A7 50 00
   3.4602 1  CE              Rx   d 2 80 00
   3.4604 1  154             Rx   d 6 46 3F 00 01 00 FF
   3.4688 1  047             Tx   d 7 04 00 00 00 00 5a ff 
   3.4690 1  048             Tx   d 7 04 00 00 00 00 55 44 
   3.4692 1  041             Tx   d 6 04 fa 00 03 06 aa 
   3.4694 1  042             Tx   d 6 04 fa 00 03 06 a5 
   3.4691 1  CA              Rx   d 8 54 00 80 00 00 A6 70 00
   3.4692 1  CD              Rx   d 2 7E F4
   3.4694 1  153             Rx   d 6 46 3F 00 01 00 FF
   3.4700 1  CB              Rx   d 8 54 00 80 00 00 A7 70 00
   3.4702 1  CE              Rx   d 2 80 00
   3.4704 1  154             Rx   d 6 46 3F 00 01 00 FF
   3.4786 1  047             Tx   d 7 44 00 00 00 00 5a af 
   3.4788 1  048             Tx   d 7 44 00 00 00 00 55 14 
   3.4789 1  041             Tx   d 6 44 fa 00 03 06 aa 
   3.4790 1  042             Tx   d 6 44 fa 00 03 06 a5 
   3.4790 1  CA              Rx   d 8 54 00 80 00 00 A5 10 00
   3.4792 1  CD              Rx   d 2 7E F4
   3.4794 1  153             Rx   d 6 46 3F 00 01 00 FF
   3.4801 1  CB              Rx   d 8 54 00 80 00 00 A6 10 00
   3.4802 1  CE              Rx   d 2 80 00
   3.4804 1  154             Rx   d 6 46 3F 00 01 00 FF
   3.4881 1  047             Tx   d 7 84 00 00 00 00 5a 5f 
   3.4883 1  048             Tx   d 7 84 00 00 00 00 55 e4 
   3.4884 1  041             Tx   d 6 84 fa 00 03 06 aa 
   3.4886 1  042             Tx   d 6 84 fa 00 03 06 a5 
   3.4891 1  CA              Rx   d 8 54 00 80 00 00 A4 30 00
   3.4892 1  CD              Rx   d 2 7E F4
   3.4894 1  153             Rx   d 6 46 3F 00 01 00 FF
   3.4901 1  CB              Rx   d 8 54 00 80 00 00 A5 30 00
   3.4902 1  CE              Rx   d 2 80 00
   3.4904 1  154             Rx   d 6 46 3F 00 01 00 FF
   3.4987 1  047             Tx   d 7 c4 00 00 00 00 5a 0f 
   3.4989 1  048             Tx   d 7 c4 00 00 00 00 55 b4 
   3.4991 1  041             Tx   d 6 c4 fa 00 03 06 aa 
   3.4992 1  042             Tx   d 6 c4 fa 00 03 06 a5 
   3.4991 1  CA              Rx   d 8 54 00 80 00 00 A3 50 00
   3.4992 1  CD              Rx   d 2 7E F4
   3.4994 1  153             Rx   d 6 46 3F 00 01 00 FF
   3.5001 1  CB              Rx   d 8 54 00 80 00 00 A4 50 00
   3.5002 1  CE              Rx   d 2 80 00
   3.5004 1  154             Rx   d 6 46 3F 00 01 00 FF
   3.5088 1  047             Tx   d 7 04 00 00 00 00 5a ff 
   3.5089 1  048             Tx   d 7 04 00 00 00 00 55 44 
   3.5091 1  041             Tx   d 6 04 fa 00 03 06 aa 
   3.5092 1  042             Tx   d 6 04 fa 00 03 06 a5 
   3.5090 1  CA              Rx   d 8 54 00 80 00 00 A3 70 00
   3.5092 1  CD              Rx   d 2 7E F4
   3.5094 1  153             Rx   d 6 46 3F 00 01 00 FF
   3.5101 1  CB              Rx   d 8 54 00 80 00 00 A4 70 00
   3.5102 1  CE              Rx   d 2 80 00
   3.5104 1  154             Rx   d 6 46 3F 00 01 00 FF
   3.5183 1  047             Tx   d 7 44 00 00 00 00 5a af 
   3.5185 1  048             Tx   d 7 44 00 00 00 00 55 14 
   3.5187 1  041             Tx   d 6 44 fa 00 03 06 aa 
   3.5189 1  042             Tx   d 6 44 fa 00 03 06 a5 
   3.5191 1  CA              Rx   d 8 54 00 80 00 00 A2 10 00
   3.5192 1  CD              Rx   d 2 7E F4
   3.5194 1  153             Rx   d 6 46 3F 00 01 00 FF
   3.5201 1  CB              Rx   d 8 54 00 80 00 00 A3 10 00
   3.5202 1  CE              Rx   d 2 80 00
   3.5204 1  154             Rx   d 6 46 3F 00 01 00 FF
   3.5286 1  047             Tx   d 7 84 00 00 00 00 5a 5f 
   3.5288 1  048             Tx   d 7 84 00 00 00 00 55 e4 
   3.5292 1  041             Tx   d 6 84 fa 00 03 06 aa 
   3.5293 1  042             Tx   d 6 84 fa 00 03 06 a5 
   3.5291 1  CA              Rx   d 8 54 00 80 00 00 A1 30 00
   3.5292 1  CD              Rx   d 2 7E F4
   3.5294 1  153             Rx   d 6 46 3F 00 01 00 FF
   3.5300 1  CB              Rx   d 8 54 00 80 00 00 A2 30 00
   3.5302 1  CE              Rx   d 2 80 00
   3.5304 1  154             Rx   d 6 46 3F 00 01 00 FF
   3.5383 1  047             Tx   d 7 c4 00 00 00 00 5a 0f 
   3.5385 1  048             Tx   d 7 c4 00 00 00 00 55 b4 
   3.5387 1  041             Tx   d 6 c4 fa 00 03 06 aa 
   3.5388 1  042             Tx   d 6 c4 fa 00 03 06 a5 
   3.5390 1  CA              Rx   d 8 54 00 80 00 00 A1 50 00
   3.5392 1  CD              Rx   d 2 7E F4
   3.5394 1  153             Rx   d 6 46 3F 00 01 00 FF
   3.5401 1  CB              Rx   d 8 54 00 80 00 00 A1 50 00
   3.5402 1  CE              Rx   d 2 80 00
   3.5404 1  154             Rx   d 6 46 3F 00 01 00 FF
   3.5488 1  047             Tx   d 7 04 00 00 00 00 5a ff 
   3.5490 1  048             Tx   d 7 04 00 00 00 00 55 44 
   3.5491 1  041             Tx   d 6 04 fa 00 03 06 aa 
   3.5492 1  042             Tx   d 6 04 fa 00 03 06 a5 
   3.5491 1  CA              Rx   d 8 54 00 80 00 00 A0 70 00
   3.5492 1  CD              Rx   d 2 7E F4
   3.5494 1  153             Rx   d 6 46 3F 00 01 00 FF
   3.5496 1  386             Rx   d 5 7B 7B 7B 47 36
   3.5500 1  CB              Rx   d 8 54 00 80 00 00 A1 70 00
   3.5502 1  CE              Rx   d 2 80 00
   3.5504 1  154             Rx   d 6 46 3F 00 01 00 FF
   3.5506 1  387             Rx   d 5 7B 7B 7B 47 36
   3.5584 1  047             Tx   d 7 44 00 00 00 00 5a af 
   3.5586 1  048             Tx   d 7 44 00 00 00 00 55 14 
   3.5588 1  041             Tx   d 6 44 fa 00 03 06 aa 
   3.5589 1  042             Tx   d 6 44 fa 00 03 06 a5 
   3.5590 1  CA              Rx   d 8 54 00 80 00 00 9F 10 00
   3.5592 1  CD              Rx   d 2 7E F4
   3.5594 1  153             Rx   d 6 46 3F 00 01 00 FF
   3.5601 1  CB              Rx   d 8 54 00 80 00 00 A0 10 00
   3.5602 1  CE              Rx   d 2 80 00
   3.5604 1  154             Rx   d 6 46 3F 00 01 00 FF
   3.5686 1  047             Tx   d 7 84 00 00 00 00 5a 5f 
   3.5688 1  048             Tx   d 7 84 00 00 00 00 55 e4 
   3.5689 1  041             Tx   d 6 84 fa 00 03 06 aa 
   3.5691 1  042             Tx   d 6 84 fa 00 03 06 a5 
   3.5691 1  CA              Rx   d 8 54 00 80 00 00 9E 30 00
   3.5692 1  CD              Rx   d 2 7E F4
   3.5694 1  153             Rx   d 6 46 3F 00 01 00 FF
   3.5701 1  CB              Rx   d 8 54 00 80 00 00 9F 30 00
   3.5702 1  CE              Rx   d 2 80 00
   3.5704 1  154             Rx   d 6 46 3F 00 01 00 FF
   3.5788 1  047             Tx   d 7 c4 00 00 00 00 5a 0f 
   3.5790 1  048             Tx   d 7 c4 00 00 00 00 55 b4 
   3.5792 1  041             Tx   d 6 c4 fa 00 03 06 aa 
   3.5793 1  042             Tx   d 6 c4 fa 00 03 06 a5 
   3.5791 1  CA              Rx   d 8 54 00 80 00 00 9E 50 00
   3.5792 1  CD              Rx   d 2 7E F4
   3.5794 1  153             Rx   d 6 46 3F 00 01 00 FF
   3.5800 1  CB              Rx   d 8 54 00 80 00 00 9F 50 00
   3.5802 1  CE              Rx   d 2 80 00
   3.5804 1  154             Rx   d 6 46 3F 00 01 00 FF
   3.5883 1  047             Tx   d 7 04 00 00 00 00 5a ff 
   3.5885 1  048             Tx   d 7 04 00 00 00 00 55 44 
   3.5886 1  041             Tx   d 6 04 fa 00 03 06 aa 
   3.5888 1  042             Tx   d 6 04 fa 00 03 06 a5 
   3.5890 1  CA              Rx   d 8 54 00 80 00 00 9D 70 00
   3.5892 1  CD              Rx   d 2 7E F4
   3.5894 1  153             Rx   d 6 46 3F 00 01 00 FF
   3.5901 1  CB              Rx   d 8 54 00 80 00 00 9E 70 00
   3.5902 1  CE              Rx   d 2 80 00
   3.5904 1  154             Rx   d 6 46 3F 00 01 00 FF
   3.5987 1  047             Tx   d 7 44 00 00 00 00 5a af 
   3.5989 1  048             Tx   d 7 44 00 00 00 00 55 14 
   3.5991 1  041             Tx   d 6 44 fa 00 03 06 aa 
   3.5993 1  042             Tx   d 6 44 fa 00 03 06 a5 
   3.5991 1  CA              Rx   d 8 54 00 80 00 00 9C 10 00
   3.5992 1  CD              Rx   d 2 7E F4
   3.5994 1  153             Rx   d 6 46 3F 00 01 00 FF
   3.6001 1  CB              Rx   d 8 54 00 80 00 00 9D 10 00
   3.6002 1  CE              Rx   d 2 80 00
   3.6004 1  154             Rx   d 6 46 3F 00 01 00 FF
   3.6082 1  047             Tx   d 7 84 00 00 00 00 5a 5f 
   3.6084 1  048             Tx   d 7 84 00 00 00 00 55 e4 
   3.6086 1  041             Tx   d 6 84 fa 00 03 06 aa 
   3.6087 1  042             Tx   d 6 84 fa 00 03 06 a5 
   3.6091 1  CA              Rx   d 8 54 00 80 00 00 9B 30 00
   3.6092 1  CD              Rx   d 2 7E F4
   3.6094 1  153             Rx   d 6 46 3F 00 01 00 FF
   3.6100 1  CB              Rx   d 8 54 00 80 00 00 9C 30 00
   3.6102 1  CE              Rx   d 2 80 00
   3.6182 1  047             Tx   d 7 c4 00 00 00 00 5a 0f 
   3.6104 1  154             Rx   d 6 46 3F 00 01 00 FF
   3.6190 1  048             Tx   d 7 c4 00 00 00 00 55 b4 
   3.6193 1  041             Tx   d 6 c4 fa 00 03 06 aa 
   3.6195 1  042             Tx   d 6 c4 fa 00 03 06 a5 
   3.6190 1  CA              Rx   d 8 54 00 80 00 00 9B 50 00
   3.6192 1  CD              Rx   d 2 7E F4
   3.6194 1  153             Rx   d 6 46 3F 00 01 00 FF
   3.6201 1  CB              Rx   d 8 54 00 80 00 00 9B 50 00
   3.6202 1  CE              Rx   d 2 80 00
   3.6204 1  154             Rx   d 6 46 3F 00 01 00 FF
   3.6290 1  047             Tx   d 7 04 00 00 00 00 5a ff 
   3.6292 1  048             Tx   d 7 04 00 00 00 00 55 44 
   3.6293 1  041             Tx   d 6 04 fa 00 03 06 aa 
   3.6294 1  042             Tx   d 6 04 fa 00 03 06 a5 
   3.6291 1  CA              Rx   d 8 54 00 80 00 00 9A 70 00
   3.6292 1  CD              Rx   d 2 7E F4
   3.6294 1  153             Rx   d 6 46 3F 00 01 00 FF
   3.6300 1  CB              Rx   d 8 54 00 80 00 00 9B 70 00
   3.6302 1  CE              Rx   d 2 80 00
   3.6304 1  154             Rx   d 6 46 3F 00 01 00 FF
   3.6434 1  047             Tx   d 7 44 00 00 00 00 5a af 
   3.6439 1  048             Tx   d 7 44 00 00 00 00 55 14 
   3.6443 1  041             Tx   d 6 44 fa 00 03 06 aa 
   3.6447 1  042             Tx   d 6 44 fa 00 03 06 a5 
   3.6390 1  CA              Rx   d 8 54 00 80 00 00 99 10 00
   3.6391 1  CD              Rx   d 2 7E F4
   3.6393 1  153             Rx   d 6 46 3F 00 01 00 FF
   3.6401 1  CB              Rx   d 8 54 00 80 00 00 9A 10 00
   3.6402 1  CE              Rx   d 2 80 00
   3.6404 1  154             Rx   d 6 46 3F 00 01 00 FF
   3.6490 1  CA              Rx   d 8 54 00 80 00 00 98 30 00
   3.6491 1  CD              Rx   d 2 7E F4
   3.6493 1  153             Rx   d 6 46 3F 00 01 00 FF
   3.6495 1  386             Rx   d 5 82 82 82 48 00
   3.6500 1  CB              Rx   d 8 54 00 80 00 00 99 30 00
   3.6501 1  CE              Rx   d 2 80 00
   3.6504 1  154             Rx   d 6 46 3F 00 01 00 FF
   3.6505 1  387             Rx   d 5 82 82 82 48 00
   3.6618 1  047             Tx   d 7 84 00 00 00 00 5a 5f 
   3.6623 1  048             Tx   d 7 84 00 00 00 00 55 e4 
   3.6627 1  041             Tx   d 6 84 fa 00 03 06 aa 
   3.6631 1  042             Tx   d 6 84 fa 00 03 06 a5 
   3.6592 1  CA              Rx   d 8 54 00 80 00 00 97 50 00
   3.6595 1  CD              Rx   d 2 7E F4
   3.6599 1  153             Rx   d 6 46 3F 00 01 00 FF
   3.6602 1  CB              Rx   d 8 54 00 80 00 00 98 50 00
   3.6603 1  CE              Rx   d 2 80 00
   3.6605 1  154             Rx   d 6 46 3F 00 01 00 FF
   3.6690 1  CA              Rx   d 8 54 00 80 00 00 97 70 00
   3.6691 1  CD              Rx   d 2 7E F4
   3.6693 1  153             Rx   d 6 46 3F 00 01 00 FF
   3.6700 1  CB              Rx   d 8 54 00 80 00 00 98 70 00
   3.6701 1  CE              Rx   d 2 80 00
   3.6703 1  154             Rx   d 6 46 3F 00 01 00 FF
   3.6782 1  047             Tx   d 7 c4 00 00 00 00 5a 0f 
   3.6797 1  048             Tx   d 7 c4 00 00 00 00 55 b4 
   3.6801 1  041             Tx   d 6 c4 fa 00 03 06 aa 
   3.6805 1  042             Tx   d 6 c4 fa 00 03 06 a5 
   3.6790 1  CA              Rx   d 8 54 00 80 00 00 96 10 00
   3.6792 1  CD              Rx   d 2 7E F4
   3.6794 1  153             Rx   d 6 46 3F 00 01 00 FF
   3.6801 1  CB              Rx   d 8 54 00 80 00 00 97 10 00
   3.6802 1  CE              Rx   d 2 80 00
   3.6804 1  154             Rx   d 6 46 3F 00 01 00 FF
   3.6937 1  047             Tx   d 7 04 00 00 00 00 5a ff 
   3.6890 1  CA              Rx   d 8 54 00 80 00 00 95 30 00
   3.6891 1  CD              Rx   d 2 7E F4
   3.6894 1  153             Rx   d 6 46 3F 00 01 00 FF
   3.6900 1  CB              Rx   d 8 54 00 80 00 00 96 30 00
   3.6904 1  CE              Rx   d 2 80 00
   3.6905 1  154             Rx   d 6 46 3F 00 01 00 FF
   3.6977 1  048             Tx   d 7 04 00 00 00 00 55 44 
   3.6992 1  041             Tx   d 6 04 fa 00 03 06 aa 
   3.6996 1  042             Tx   d 6 04 fa 00 03 06 a5 
   3.6990 1  CA              Rx   d 8 54 00 80 00 00 94 50 00
   3.6992 1  CD              Rx   d 2 7E F4
   3.6994 1  153             Rx   d 6 46 3F 00 01 00 FF
   3.7001 1  CB              Rx   d 8 54 00 80 00 00 95 50 00
   3.7002 1  CE              Rx   d 2 80 00
   3.7004 1  154             Rx   d 6 46 3F 00 01 00 FF
   3.7128 1  047             Tx   d 7 44 00 00 00 00 5a af 
   3.7132 1  048             Tx   d 7 44 00 00 00 00 55 14 
   3.7136 1  041             Tx   d 6 44 fa 00 03 06 aa 
   3.7139 1  042             Tx   d 6 44 fa 00 03 06 a5 
   3.7090 1  CA              Rx   d 8 54 00 80 00 00 94 70 00
   3.7091 1  CD              Rx   d 2 7E F4
   3.7096 1  153             Rx   d 6 46 3F 00 01 00 FF
   3.7100 1  CB              Rx   d 8 54 00 80 00 00 95 70 00
   3.7104 1  CE              Rx   d 2 80 00
   3.7108 1  154             Rx   d 6 46 3F 00 01 00 FF
   3.7190 1  CA              Rx   d 8 54 00 80 00 00 93 10 00
   3.7191 1  CD              Rx   d 2 7E F4
   3.7193 1  153             Rx   d 6 46 3F 00 01 00 FF
   3.7200 1  CB              Rx   d 8 54 00 80 00 00 94 10 00
   3.7202 1  CE              Rx   d 2 80 00
   3.7203 1  154             Rx   d 6 46 3F 00 01 00 FF
   3.7293 1  047             Tx   d 7 84 00 00 00 00 5a 5f 
   3.7309 1  048             Tx   d 7 84 00 00 00 00 55 e4 
   3.7314 1  041             Tx   d 6 84 fa 00 03 06 aa 
   3.7318 1  042             Tx   d 6 84 fa 00 03 06 a5 
   3.7290 1  CA              Rx   d 8 54 00 80 00 00 92 30 00
   3.7292 1  CD              Rx   d 2 7E F4
   3.7294 1  153             Rx   d 6 46 3F 00 01 00 FF
   3.7301 1  CB              Rx   d 8 54 00 80 00 00 93 30 00
   3.7302 1  CE              Rx   d 2 80 00
   3.7304 1  154             Rx   d 6 46 3F 00 01 00 FF
   3.7407 1  047             Tx   d 7 c4 00 00 00 00 5a 0f 
   3.7410 1  048             Tx   d 7 c4 00 00 00 00 55 b4 
   3.7411 1  041             Tx   d 6 c4 fa 00 03 06 aa 
   3.7413 1  042             Tx   d 6 c4 fa 00 03 06 a5 
   3.7391 1  CA              Rx   d 8 54 00 80 00 00 92 50 00
   3.7392 1  CD              Rx   d 2 7E F4
   3.7394 1  153             Rx   d 6 46 3F 00 01 00 FF
   3.7400 1  CB              Rx   d 8 54 00 80 00 00 92 50 00
   3.7402 1  CE              Rx   d 2 80 00
   3.7404 1  154             Rx   d 6 46 3F 00 01 00 FF
   3.7502 1  047             Tx   d 7 04 00 00 00 00 5a ff 
   3.7504 1  048             Tx   d 7 04 00 00 00 00 55 44 
   3.7506 1  041             Tx   d 6 04 fa 00 03 06 aa 
   3.7508 1  042             Tx   d 6 04 fa 00 03 06 a5 
   3.7491 1  CA              Rx   d 8 54 00 80 00 00 91 70 00
   3.7492 1  CD              Rx   d 2 7E F4
   3.7494 1  153             Rx   d 6 46 3F 00 01 00 FF
   3.7496 1  386             Rx   d 5 8A 8A 88 49 00
   3.7498 1  684             Rx   d 8 00 00 00 00 00 00 00 00
   3.7501 1  CB              Rx   d 8 54 00 80 00 00 92 70 00
   3.7502 1  CE              Rx   d 2 80 00
   3.7504 1  154             Rx   d 6 46 3F 00 01 00 FF
   3.7506 1  387             Rx   d 5 8A 8A 88 49 00
   3.7508 1  685             Rx   d 8 00 00 00 00 00 00 00 00
   3.7597 1  047             Tx   d 7 44 00 00 00 00 5a af 
   3.7599 1  048             Tx   d 7 44 00 00 00 00 55 14 
   3.7600 1  041             Tx   d 6 44 fa 00 03 06 aa 
   3.7602 1  042             Tx   d 6 44 fa 00 03 06 a5 
   3.7591 1  CA              Rx   d 8 54 00 80 00 00 90 10 00
   3.7592 1  CD              Rx   d 2 7E F4
   3.7594 1  153             Rx   d 6 46 3F 00 01 00 FF
   3.7601 1  CB              Rx   d 8 54 00 80 00 00 91 10 00
   3.7602 1  CE              Rx   d 2 80 00
   3.7604 1  154             Rx   d 6 46 3F 00 01 00 FF
   3.7691 1  047             Tx   d 7 84 00 00 00 00 5a 5f 
   3.7693 1  048             Tx   d 7 84 00 00 00 00 55 e4 
   3.7695 1  041             Tx   d 6 84 fa 00 03 06 aa 
   3.7697 1  042             Tx   d 6 84 fa 00 03 06 a5 
   3.7691 1  CA              Rx   d 8 54 00 80 00 00 90 30 00
   3.7692 1  CD              Rx   d 2 7E F4
   3.7694 1  153             Rx   d 6 46 3F 00 01 00 FF
   3.7700 1  CB              Rx   d 8 54 00 80 00 00 90 30 00
   3.7702 1  CE              Rx   d 2 80 00
   3.7704 1  154             Rx   d 6 46 3F 00 01 00 FF
   3.7786 1  047             Tx   d 7 c4 00 00 00 00 5a 0f 
   3.7789 1  048             Tx   d 7 c4 00 00 00 00 55 b4 
   3.7790 1  041             Tx   d 6 c4 fa 00 03 06 aa 
   3.7792 1  042             Tx   d 6 c4 fa 00 03 06 a5 
   3.7790 1  CA              Rx   d 8 54 00 80 00 00 8F 50 00
   3.7792 1  CD              Rx   d 2 7E F4
   3.7794 1  153             Rx   d 6 46 3F 00 01 00 FF
   3.7801 1  CB              Rx   d 8 54 00 80 00 00 8F 50 00
   3.7802 1  CE              Rx   d 2 80 00
   3.7804 1  154             Rx   d 6 46 3F 00 01 00 FF
   3.7888 1  047             Tx   d 7 04 00 00 00 00 5a ff 
   3.7890 1  048             Tx   d 7 04 00 00 00 00 55 44 
   3.7892 1  041             Tx   d 6 04 fa 00 03 06 aa 
   3.7894 1  042             Tx   d 6 04 fa 00 03 06 a5 
   3.7891 1  CA              Rx   d 8 54 00 80 00 00 8E 70 00
   3.7892 1  CD              Rx   d 2 7E F4
   3.7894 1  153             Rx   d 6 46 3F 00 01 00 FF
   3.7900 1  CB              Rx   d 8 54 00 80 00 00 8F 70 00
   3.7902 1  CE              Rx   d 2 80 00
   3.7904 1  154             Rx   d 6 46 3F 00 01 00 FF
   3.7983 1  047             Tx   d 7 44 00 00 00 00 5a af 
   3.7985 1  048             Tx   d 7 44 00 00 00 00 55 14 
   3.7987 1  041             Tx   d 6 44 fa 00 03 06 aa 
   3.7989 1  042             Tx   d 6 44 fa 00 03 06 a5 
   3.7990 1  CA              Rx   d 8 54 00 80 00 00 8D 10 00
   3.7992 1  CD              Rx   d 2 7E F4
   3.7994 1  153             Rx   d 6 46 3F 00 01 00 FF
   3.8001 1  CB              Rx   d 8 54 00 80 00 00 8E 10 00
   3.8002 1  CE              Rx   d 2 80 00
   3.8084 1  047             Tx   d 7 84 00 00 00 00 5a 5f 
   3.8004 1  154             Rx   d 6 46 3F 00 01 00 FF
   3.8091 1  048             Tx   d 7 84 00 00 00 00 55 e4 
   3.8093 1  041             Tx   d 6 84 fa 00 03 06 aa 
   3.8095 1  042             Tx   d 6 84 fa 00 03 06 a5 
   3.8091 1  CA              Rx   d 8 54 00 80 00 00 8D 30 00
   3.8092 1  CD              Rx   d 2 7E F4
   3.8094 1  153             Rx   d 6 46 3F 00 01 00 FF
   3.8101 1  CB              Rx   d 8 54 00 80 00 00 8D 30 00
   3.8102 1  CE              Rx   d 2 80 00
   3.8104 1  154             Rx   d 6 46 3F 00 01 00 FF
   3.8184 1  047             Tx   d 7 c4 00 00 00 00 5a 0f 
   3.8186 1  048             Tx   d 7 c4 00 00 00 00 55 b4 
   3.8188 1  041             Tx   d 6 c4 fa 00 03 06 aa 
   3.8189 1  042             Tx   d 6 c4 fa 00 03 06 a5 
   3.8191 1  CA              Rx   d 8 54 00 80 00 00 8C 50 00
   3.8192 1  CD              Rx   d 2 7E F4
   3.8194 1  153             Rx   d 6 46 3F 00 01 00 FF
   3.8200 1  CB              Rx   d 8 54 00 80 00 00 8D 50 00
   3.8202 1  CE              Rx   d 2 80 00
   3.8204 1  154             Rx   d 6 46 3F 00 01 00 FF
   3.8291 1  047             Tx   d 7 04 00 00 00 00 5a ff 
   3.8293 1  048             Tx   d 7 04 00 00 00 00 55 44 
   3.8294 1  041             Tx   d 6 04 fa 00 03 06 aa 
   3.8296 1  042             Tx   d 6 04 fa 00 03 06 a5 
   3.8290 1  CA              Rx   d 8 54 00 80 00 00 8B 70 00
   3.8292 1  CD              Rx   d 2 7E F4
   3.8294 1  153             Rx   d 6 46 3F 00 01 00 FF
   3.8301 1  CB              Rx   d 8 54 00 80 00 00 8C 70 00
   3.8302 1  CE              Rx   d 2 80 00
   3.8304 1  154             Rx   d 6 46 3F 00 01 00 FF
   3.8394 1  047             Tx   d 7 44 00 00 00 00 5a af 
   3.8396 1  048             Tx   d 7 44 00 00 00 00 55 14 
   3.8398 1  041             Tx   d 6 44 fa 00 03 06 aa 
   3.8399 1  042             Tx   d 6 44 fa 00 03 06 a5 
   3.8391 1  CA              Rx   d 8 54 00 80 00 00 8A 10 00
   3.8392 1  CD              Rx   d 2 7E F4
   3.8394 1  153             Rx   d 6 46 3F 00 01 00 FF
   3.8401 1  CB              Rx   d 8 54 00 80 00 00 8B 10 00
   3.8402 1  CE              Rx   d 2 80 00
   3.8404 1  154             Rx   d 6 46 3F 00 01 00 FF
   3.8489 1  047             Tx   d 7 84 00 00 00 00 5a 5f 
   3.8491 1  048             Tx   d 7 84 00 00 00 00 55 e4 
   3.8492 1  041             Tx   d 6 84 fa 00 03 06 aa 
   3.8494 1  042             Tx   d 6 84 fa 00 03 06 a5 
   3.8491 1  CA              Rx   d 8 54 00 80 00 00 89 30 00
   3.8492 1  CD              Rx   d 2 7E F4
   3.8494 1  153             Rx   d 6 46 3F 00 01 00 FF
   3.8496 1  386             Rx   d 5 93 92 90 4A 00
   3.8500 1  CB              Rx   d 8 54 00 80 00 00 8A 30 00
   3.8502 1  CE              Rx   d 2 80 00
   3.8504 1  154             Rx   d 6 46 3F 00 01 00 FF
   3.8506 1  387             Rx   d 5 93 92 90 4A 00
   3.8592 1  047             Tx   d 7 c4 00 00 00 00 5a 0f 
   3.8594 1  048             Tx   d 7 c4 00 00 00 00 55 b4 
   3.8596 1  041             Tx   d 6 c4 fa 00 03 06 aa 
   3.8597 1  042             Tx   d 6 c4 fa 00 03 06 a5 
   3.8591 1  CA              Rx   d 8 54 00 80 00 00 89 50 00
   3.8592 1  CD              Rx   d 2 7E F4
   3.8594 1  153             Rx   d 6 46 3F 00 01 00 FF
   3.8601 1  CB              Rx   d 8 54 00 80 00 00 8A 50 00
   3.8602 1  CE              Rx   d 2 80 00
   3.8604 1  154             Rx   d 6 46 3F 00 01 00 FF
   3.8686 1  047             Tx   d 7 04 00 00 00 00 5a ff 
   3.8688 1  048             Tx   d 7 04 00 00 00 00 55 44 
   3.8690 1  041             Tx   d 6 04 fa 00 03 06 aa 
   3.8692 1  042             Tx   d 6 04 fa 00 03 06 a5 
   3.8691 1  CA              Rx   d 8 54 00 80 00 00 88 70 00
   3.8692 1  CD              Rx   d 2 7E F4
   3.8694 1  153             Rx   d 6 46 3F 00 01 00 FF
   3.8700 1  CB              Rx   d 8 54 00 80 00 00 89 70 00
   3.8702 1  CE              Rx   d 2 80 00
   3.8704 1  154             Rx   d 6 46 3F 00 01 00 FF
   3.8786 1  047             Tx   d 7 44 00 00 00 00 5a af 
   3.8788 1  048             Tx   d 7 44 00 00 00 00 55 14 
   3.8790 1  041             Tx   d 6 44 fa 00 03 06 aa 
   3.8792 1  042             Tx   d 6 44 fa 00 03 06 a5 
   3.8790 1  CA              Rx   d 8 54 00 80 00 00 87 10 00
   3.8792 1  CD              Rx   d 2 7E F4
   3.8794 1  153             Rx   d 6 46 3F 00 01 00 FF
   3.8801 1  CB              Rx   d 8 54 00 80 00 00 88 10 00
   3.8802 1  CE              Rx   d 2 80 00
   3.8804 1  154             Rx   d 6 46 3F 00 01 00 FF
   3.8894 1  047             Tx   d 7 84 00 00 00 00 5a 5f 
   3.8896 1  048             Tx   d 7 84 00 00 00 00 55 e4 
   3.8898 1  041             Tx   d 6 84 fa 00 03 06 aa 
   3.8899 1  042             Tx   d 6 84 fa 00 03 06 a5 
   3.8891 1  CA              Rx   d 8 54 00 80 00 00 87 30 00
   3.8892 1  CD              Rx   d 2 7E F4
   3.8894 1  153             Rx   d 6 46 3F 00 01 00 FF
   3.8901 1  CB              Rx   d 8 54 00 80 00 00 88 30 00
   3.8902 1  CE              Rx   d 2 80 00
   3.8904 1  154             Rx   d 6 46 3F 00 01 00 FF
   3.8989 1  047             Tx   d 7 c4 00 00 00 00 5a 0f 
   3.8991 1  048             Tx   d 7 c4 00 00 00 00 55 b4 
   3.8993 1  041             Tx   d 6 c4 fa 00 03 06 aa 
   3.8994 1  042             Tx   d 6 c4 fa 00 03 06 a5 
   3.8991 1  CA              Rx   d 8 54 00 80 00 00 86 50 00
   3.8992 1  CD              Rx   d 2 7E F4
   3.8994 1  153             Rx   d 6 46 3F 00 01 00 FF
   3.9000 1  CB              Rx   d 8 54 00 80 00 00 87 50 00
   3.9002 1  CE              Rx   d 2 80 00
   3.9004 1  154             Rx   d 6 46 3F 00 01 00 FF
   3.9087 1  047             Tx   d 7 04 00 00 00 00 5a ff 
   3.9089 1  048             Tx   d 7 04 00 00 00 00 55 44 
   3.9091 1  041             Tx   d 6 04 fa 00 03 06 aa 
   3.9092 1  042             Tx   d 6 04 fa 00 03 06 a5 
   3.9090 1  CA              Rx   d 8 54 00 80 00 00 85 70 00
   3.9092 1  CD              Rx   d 2 7E F4
   3.9094 1  153             Rx   d 6 46 3F 00 01 00 FF
   3.9101 1  CB              Rx   d 8 54 00 80 00 00 86 70 00
   3.9102 1  CE              Rx   d 2 80 00
   3.9104 1  154             Rx   d 6 46 3F 00 01 00 FF
   3.9182 1  047             Tx   d 7 44 00 00 00 00 5a af 
   3.9184 1  048             Tx   d 7 44 00 00 00 00 55 14 
   3.9185 1  041             Tx   d 6 44 fa 00 03 06 aa 
   3.9187 1  042             Tx   d 6 44 fa 00 03 06 a5 
   3.9191 1  CA              Rx   d 8 54 00 80 00 00 84 10 00
   3.9192 1  CD              Rx   d 2 7E F4
   3.9194 1  153             Rx   d 6 46 3F 00 01 00 FF
   3.9201 1  CB              Rx   d 8 54 00 80 00 00 85 10 00
   3.9202 1  CE              Rx   d 2 80 00
   3.9204 1  154             Rx   d 6 46 3F 00 01 00 FF
   3.9287 1  047             Tx   d 7 84 00 00 00 00 5a 5f 
   3.9289 1  048             Tx   d 7 84 00 00 00 00 55 e4 
   3.9291 1  041             Tx   d 6 84 fa 00 03 06 aa 
   3.9292 1  042             Tx   d 6 84 fa 00 03 06 a5 
   3.9291 1  CA              Rx   d 8 54 00 80 00 00 83 30 00
   3.9292 1  CD              Rx   d 2 7E F4
   3.9294 1  153             Rx   d 6 46 3F 00 01 00 FF
   3.9300 1  CB              Rx   d 8 54 00 80 00 00 84 30 00
   3.9302 1  CE              Rx   d 2 80 00
   3.9304 1  154             Rx   d 6 46 3F 00 01 00 FF
   3.9394 1  047             Tx   d 7 c4 00 00 00 00 5a 0f 
   3.9396 1  048             Tx   d 7 c4 00 00 00 00 55 b4 
   3.9398 1  041             Tx   d 6 c4 fa 00 03 06 aa 
   3.9400 1  042             Tx   d 6 c4 fa 00 03 06 a5 
   3.9391 1  CA              Rx   d 8 54 00 80 00 00 83 50 00
   3.9392 1  CD              Rx   d 2 7E F4
   3.9394 1  153             Rx   d 6 46 3F 00 01 00 FF
   3.9401 1  CB              Rx   d 8 54 00 80 00 00 84 50 00
   3.9402 1  CE              Rx   d 2 80 00
   3.9404 1  154             Rx   d 6 46 3F 00 01 00 FF
   3.9489 1  047             Tx   d 7 04 00 00 00 00 5a ff 
   3.9491 1  048             Tx   d 7 04 00 00 00 00 55 44 
   3.9493 1  041             Tx   d 6 04 fa 00 03 06 aa 
   3.9495 1  042             Tx   d 6 04 fa 00 03 06 a5 
   3.9491 1  CA              Rx   d 8 54 00 80 00 00 82 70 00
   3.9492 1  CD              Rx   d 2 7E F4
   3.9494 1  153             Rx   d 6 46 3F 00 01 00 FF
   3.9496 1  386             Rx   d 5 9A 98 98 4B 00
   3.9500 1  CB              Rx   d 8 54 00 80 00 00 83 70 00
   3.9502 1  CE              Rx   d 2 80 00
   3.9504 1  154             Rx   d 6 46 3F 00 01 00 FF
   3.9506 1  387             Rx   d 5 9A 98 98 4B 00
   3.9592 1  047             Tx   d 7 44 00 00 00 00 5a af 
   3.9594 1  048             Tx   d 7 44 00 00 00 00 55 14 
   3.9595 1  041             Tx   d 6 44 fa 00 03 06 aa 
   3.9597 1  042             Tx   d 6 44 fa 00 03 06 a5 
   3.9590 1  CA              Rx   d 8 54 00 80 00 00 81 10 00
   3.9592 1  CD              Rx   d 2 7E F4
   3.9594 1  153             Rx   d 6 46 3F 00 01 00 FF
   3.9601 1  CB              Rx   d 8 54 00 80 00 00 82 10 00
   3.9602 1  CE              Rx   d 2 80 00
   3.9604 1  154             Rx   d 6 46 3F 00 01 00 FF
   3.9686 1  047             Tx   d 7 84 00 00 00 00 5a 5f 
   3.9688 1  048             Tx   d 7 84 00 00 00 00 55 e4 
   3.9690 1  041             Tx   d 6 84 fa 00 03 06 aa 
   3.9692 1  042             Tx   d 6 84 fa 00 03 06 a5 
   3.9691 1  CA              Rx   d 8 54 00 80 00 00 80 30 00
   3.9692 1  CD              Rx   d 2 7E F4
   3.9694 1  153             Rx   d 6 46 3F 00 01 00 FF
   3.9701 1  CB              Rx   d 8 54 00 80 00 00 81 30 00
   3.9702 1  CE              Rx   d 2 80 00
   3.9704 1  154             Rx   d 6 46 3F 00 01 00 FF
   3.9792 1  047             Tx   d 7 c4 00 00 00 00 5a 0f 
   3.9796 1  048             Tx   d 7 c4 00 00 00 00 55 b4 
   3.9798 1  041             Tx   d 6 c4 fa 00 03 06 aa 
   3.9799 1  042             Tx   d 6 c4 fa 00 03 06 a5 
   3.9791 1  CA              Rx   d 8 54 00 80 00 00 80 50 00
   3.9792 1  CD              Rx   d 2 7E F4
   3.9794 1  153             Rx   d 6 46 3F 00 01 00 FF
   3.9800 1  CB              Rx   d 8 54 00 80 00 00 81 50 00
   3.9802 1  CE              Rx   d 2 80 00
   3.9804 1  154             Rx   d 6 46 3F 00 01 00 FF
   3.9889 1  047             Tx   d 7 04 00 00 00 00 5a ff 
   3.9891 1  048             Tx   d 7 04 00 00 00 00 55 44 
   3.9892 1  041             Tx   d 6 04 fa 00 03 06 aa 
   3.9894 1  042             Tx   d 6 04 fa 00 03 06 a5 
   3.9890 1  CA              Rx   d 8 54 00 80 00 00 7F 70 00
   3.9892 1  CD              Rx   d 2 7E F4
   3.9894 1  153             Rx   d 6 46 3F 00 01 00 FF
   3.9901 1  CB              Rx   d 8 54 00 80 00 00 80 70 00
   3.9902 1  CE              Rx   d 2 80 00
   3.9904 1  154             Rx   d 6 46 3F 00 01 00 FF
   3.9986 1  047             Tx   d 7 44 00 00 00 00 5a af 
   3.9988 1  048             Tx   d 7 44 00 00 00 00 55 14 
   3.9990 1  041             Tx   d 6 44 fa 00 03 06 aa 
   3.9992 1  042             Tx   d 6 44 fa 00 03 06 a5 
   3.9991 1  CA              Rx   d 8 54 00 80 00 00 7E 10 00
   3.9992 1  CD              Rx   d 2 7E F4
   3.9994 1  153             Rx   d 6 46 3F 00 01 00 FF
   4.0001 1  CB              Rx   d 8 54 00 80 00 00 7F 10 00
   4.0002 1  CE              Rx   d 2 80 00
   4.0004 1  154             Rx   d 6 46 3F 00 01 00 FF
   4.0081 1  047             Tx   d 7 84 00 00 00 00 5a 5f 
   4.0083 1  048             Tx   d 7 84 00 00 00 00 55 e4 
   4.0085 1  041             Tx   d 6 84 fa 00 03 06 aa 
   4.0086 1  042             Tx   d 6 84 fa 00 03 06 a5 
   4.0091 1  CA              Rx   d 8 54 00 80 00 00 7D 30 00
   4.0092 1  CD              Rx   d 2 7E F4
   4.0094 1  153             Rx   d 6 46 3F 00 01 00 FF
   4.0100 1  CB              Rx   d 8 54 00 80 00 00 7E 30 00
   4.0102 1  CE              Rx   d 2 80 00
   4.0104 1  154             Rx   d 6 46 3F 00 01 00 FF
   4.0183 1  047             Tx   d 7 c4 00 00 00 00 5a 0f 
   4.0187 1  048             Tx   d 7 c4 00 00 00 00 55 b4 
   4.0189 1  041             Tx   d 6 c4 fa 00 03 06 aa 
   4.0191 1  042             Tx   d 6 c4 fa 00 03 06 a5 
   4.0191 1  CA              Rx   d 8 54 00 80 00 00 7D 50 00
   4.0192 1  CD              Rx   d 2 7E F4
   4.0194 1  153             Rx   d 6 46 3F 00 01 00 FF
   4.0201 1  CB              Rx   d 8 54 00 80 00 00 7D 50 00
   4.0202 1  CE              Rx   d 2 80 00
   4.0204 1  154             Rx   d 6 46 3F 00 01 00 FF
   4.0289 1  047             Tx   d 7 04 00 00 00 00 5a ff 
   4.0292 1  048             Tx   d 7 04 00 00 00 00 55 44 
   4.0293 1  041             Tx   d 6 04 fa 00 03 06 aa 
   4.0295 1  042             Tx   d 6 04 fa 00 03 06 a5 
   4.0291 1  CA              Rx   d 8 54 00 80 00 00 7C 70 00
   4.0292 1  CD              Rx   d 2 7E F4
   4.0294 1  153             Rx   d 6 46 3F 00 01 00 FF
   4.0300 1  CB              Rx   d 8 54 00 80 00 00 7D 70 00
   4.0302 1  CE              Rx   d 2 80 00
   4.0304 1  154             Rx   d 6 46 3F 00 01 00 FF
   4.0391 1  047             Tx   d 7 44 00 00 00 00 5a af 
   4.0395 1  048             Tx   d 7 44 00 00 00 00 55 14 
   4.0397 1  041             Tx   d 6 44 fa 00 03 06 aa 
   4.0399 1  042             Tx   d 6 44 fa 00 03 06 a5 
   4.0390 1  CA              Rx   d 8 54 00 80 00 00 7B 10 00
   4.0392 1  CD              Rx   d 2 7E F4
   4.0394 1  153             Rx   d 6 46 3F 00 01 00 FF
   4.0401 1  CB              Rx   d 8 54 00 80 00 00 7C 10 00
   4.0402 1  CE              Rx   d 2 80 00
   4.0404 1  154             Rx   d 6 46 3F 00 01 00 FF
   4.0488 1  047             Tx   d 7 84 00 00 00 00 5a 5f 
   4.0490 1  048             Tx   d 7 84 00 00 00 00 55 e4 
   4.0492 1  041             Tx   d 6 84 fa 00 03 06 aa 
   4.0494 1  042             Tx   d 6 84 fa 00 03 06 a5 
   4.0491 1  CA              Rx   d 8 54 00 80 00 00 7A 30 00
   4.0492 1  CD              Rx   d 2 7E F4
   4.0494 1  153             Rx   d 6 46 3F 00 01 00 FF
   4.0496 1  386             Rx   d 5 A2 A2 A0 4C 00
   4.0501 1  CB              Rx   d 8 54 00 80 00 00 7B 30 00
   4.0502 1  CE              Rx   d 2 80 00
   4.0504 1  154             Rx   d 6 46 3F 00 01 00 FF
   4.0506 1  387             Rx   d 5 A2 A2 A0 4C 00
   4.0586 1  047             Tx   d 7 c4 00 00 00 00 5a 0f 
   4.0588 1  048             Tx   d 7 c4 00 00 00 00 55 b4 
   4.0589 1  041             Tx   d 6 c4 fa 00 03 06 aa 
   4.0591 1  042             Tx   d 6 c4 fa 00 03 06 a5 
   4.0591 1  CA              Rx   d 8 54 00 80 00 00 7A 50 00
   4.0592 1  CD              Rx   d 2 7E F4
   4.0594 1  153             Rx   d 6 46 3F 00 01 00 FF
   4.0600 1  CB              Rx   d 8 54 00 80 00 00 7A 50 00
   4.0602 1  CE              Rx   d 2 80 00
   4.0604 1  154             Rx   d 6 46 3F 00 01 00 FF
   4.0686 1  047             Tx   d 7 04 00 00 00 00 5a ff 
   4.0688 1  048             Tx   d 7 04 00 00 00 00 55 44 
   4.0690 1  041             Tx   d 6 04 fa 00 03 06 aa 
   4.0692 1  042             Tx   d 6 04 fa 00 03 06 a5 
   4.0690 1  CA              Rx   d 8 54 00 80 00 00 79 70 00
   4.0692 1  CD              Rx   d 2 7E F4
   4.0694 1  153             Rx   d 6 46 3F 00 01 00 FF
   4.0784 1  047             Tx   d 7 44 00 00 00 00 5a af 
   4.0786 1  048             Tx   d 7 44 00 00 00 00 55 14 
   4.0787 1  041             Tx   d 6 44 fa 00 03 06 aa 
   4.0789 1  042             Tx   d 6 44 fa 00 03 06 a5 
   4.0701 1  CB              Rx   d 8 54 00 80 00 00 7A 70 00
   4.0702 1  CE              Rx   d 2 80 00
   4.0704 1  154             Rx   d 6 46 3F 00 01 00 FF
   4.0791 1  CA              Rx   d 8 54 00 80 00 00 78 10 00
   4.0792 1  CD              Rx   d 2 7E F4
   4.0794 1  153             Rx   d 6 46 3F 00 01 00 FF
   4.0801 1  CB              Rx   d 8 54 00 80 00 00 79 10 00
   4.0802 1  CE              Rx   d 2 80 00
   4.0884 1  047             Tx   d 7 84 00 00 00 00 5a 5f 
   4.0804 1  154             Rx   d 6 46 3F 00 01 00 FF
   4.0892 1  048             Tx   d 7 84 00 00 00 00 55 e4 
   4.0894 1  041             Tx   d 6 84 fa 00 03 06 aa 
   4.0896 1  042             Tx   d 6 84 fa 00 03 06 a5 
   4.0891 1  CA              Rx   d 8 54 00 80 00 00 77 30 00
   4.0892 1  CD              Rx   d 2 7E F4
   4.0894 1  153             Rx   d 6 46 3F 00 01 00 FF
   4.0900 1  CB              Rx   d 8 54 00 80 00 00 78 30 00
   4.0902 1  CE              Rx   d 2 80 00
   4.0904 1  154             Rx   d 6 46 3F 00 01 00 FF
   4.0989 1  047             Tx   d 7 c4 00 00 00 00 5a 0f 
   4.0991 1  048             Tx   d 7 c4 00 00 00 00 55 b4 
   4.0992 1  041             Tx   d 6 c4 fa 00 03 06 aa 
   4.0994 1  042             Tx   d 6 c4 fa 00 03 06 a5 
   4.0990 1  CA              Rx   d 8 54 00 80 00 00 77 50 00
   4.0992 1  CD              Rx   d 2 7E F4
   4.0994 1  153             Rx   d 6 46 3F 00 01 00 FF
   4.1001 1  CB              Rx   d 8 54 00 80 00 00 77 50 00
   4.1002 1  CE              Rx   d 2 80 00
   4.1004 1  154             Rx   d 6 46 3F 00 01 00 FF
   4.1083 1  047             Tx   d 7 04 00 00 00 00 5a ff 
   4.1085 1  048             Tx   d 7 04 00 00 00 00 55 44 
   4.1087 1  041             Tx   d 6 04 fa 00 03 06 aa 
   4.1089 1  042             Tx   d 6 04 fa 00 03 06 a5 
   4.1091 1  CA              Rx   d 8 54 00 80 00 00 76 70 00
   4.1092 1  CD              Rx   d 2 7E F4
   4.1094 1  153             Rx   d 6 46 3F 00 01 00 FF
   4.1100 1  CB              Rx   d 8 54 00 80 00 00 77 70 00
   4.1102 1  CE              Rx   d 2 80 00
   4.1104 1  154             Rx   d 6 46 3F 00 01 00 FF
   4.1187 1  047             Tx   d 7 44 00 00 00 00 5a af 
   4.1191 1  048             Tx   d 7 44 00 00 00 00 55 14 
   4.1192 1  041             Tx   d 6 44 fa 00 03 06 aa 
   4.1194 1  042             Tx   d 6 44 fa 00 03 06 a5 
   4.1190 1  CA              Rx   d 8 54 00 80 00 00 75 10 00
   4.1192 1  CD              Rx   d 2 7E F4
   4.1194 1  153             Rx   d 6 46 3F 00 01 00 FF
   4.1200 1  CB              Rx   d 8 54 00 80 00 00 76 10 00
   4.1202 1  CE              Rx   d 2 80 00
   4.1204 1  154             Rx   d 6 46 3F 00 01 00 FF
   4.1286 1  047             Tx   d 7 84 00 00 00 00 5a 5f 
   4.1288 1  048             Tx   d 7 84 00 00 00 00 55 e4 
   4.1290 1  041             Tx   d 6 84 fa 00 03 06 aa 
   4.1291 1  042             Tx   d 6 84 fa 00 03 06 a5 
   4.1291 1  CA              Rx   d 8 54 00 80 00 00 74 30 00
   4.1292 1  CD              Rx   d 2 7E F4
   4.1294 1  153             Rx   d 6 46 3F 00 01 00 FF
   4.1301 1  CB              Rx   d 8 54 00 80 00 00 75 30 00
   4.1302 1  CE              Rx   d 2 80 00
   4.1304 1  154             Rx   d 6 46 3F 00 01 00 FF
   4.1389 1  047             Tx   d 7 c4 00 00 00 00 5a 0f 
   4.1391 1  048             Tx   d 7 c4 00 00 00 00 55 b4 
   4.1393 1  041             Tx   d 6 c4 fa 00 03 06 aa 
   4.1394 1  042             Tx   d 6 c4 fa 00 03 06 a5 
   4.1391 1  CA              Rx   d 8 54 00 80 00 00 74 50 00
   4.1392 1  CD              Rx   d 2 7E F4
   4.1394 1  153             Rx   d 6 46 3F 00 01 00 FF
   4.1400 1  CB              Rx   d 8 54 00 80 00 00 75 50 00
   4.1402 1  CE              Rx   d 2 80 00
   4.1404 1  154             Rx   d 6 46 3F 00 01 00 FF
   4.1490 1  047             Tx   d 7 04 00 00 00 00 5a ff 
   4.1492 1  048             Tx   d 7 04 00 00 00 00 55 44 
   4.1494 1  041             Tx   d 6 04 fa 00 03 06 aa 
   4.1495 1  042             Tx   d 6 04 fa 00 03 06 a5 
   4.1490 1  CA              Rx   d 8 54 00 80 00 00 73 70 00
   4.1492 1  CD              Rx   d 2 7E F4
   4.1494 1  153             Rx   d 6 46 3F 00 01 00 FF
   4.1496 1  386             Rx   d 5 AA AA A8 4D 00
   4.1501 1  CB              Rx   d 8 54 00 80 00 00 74 70 00
   4.1502 1  CE              Rx   d 2 80 00
   4.1504 1  154             Rx   d 6 46 3F 00 01 00 FF
   4.1506 1  387             Rx   d 5 AA AA A8 4D 00
   4.1588 1  047             Tx   d 7 44 00 00 00 00 5a af 
   4.1590 1  048             Tx   d 7 44 00 00 00 00 55 14 
   4.1591 1  041             Tx   d 6 44 fa 00 03 06 aa 
   4.1593 1  042             Tx   d 6 44 fa 00 03 06 a5 
   4.1591 1  CA              Rx   d 8 54 00 80 00 00 72 10 00
   4.1592 1  CD              Rx   d 2 7E F4
   4.1594 1  153             Rx   d 6 46 3F 00 01 00 FF
   4.1601 1  CB              Rx   d 8 54 00 80 00 00 73 10 00
   4.1602 1  CE              Rx   d 2 80 00
   4.1604 1  154             Rx   d 6 46 3F 00 01 00 FF
   4.1686 1  047             Tx   d 7 84 00 00 00 00 5a 5f 
   4.1688 1  048             Tx   d 7 84 00 00 00 00 55 e4 
   4.1689 1  041             Tx   d 6 84 fa 00 03 06 aa 
   4.1691 1  042             Tx   d 6 84 fa 00 03 06 a5 
   4.1691 1  CA              Rx   d 8 54 00 80 00 00 71 30 00
   4.1692 1  CD              Rx   d 2 7E F4
   4.1694 1  153             Rx   d 6 46 3F 00 01 00 FF
   4.1700 1  CB              Rx   d 8 54 00 80 00 00 72 30 00
   4.1702 1  CE              Rx   d 2 80 00
   4.1704 1  154             Rx   d 6 46 3F 00 01 00 FF
   4.1781 1  047             Tx   d 7 c4 00 00 00 00 5a 0f 
   4.1783 1  048             Tx   d 7 c4 00 00 00 00 55 b4 
   4.1785 1  041             Tx   d 6 c4 fa 00 03 06 aa 
   4.1787 1  042             Tx   d 6 c4 fa 00 03 06 a5 
   4.1790 1  CA              Rx   d 8 54 00 80 00 00 71 50 00
   4.1792 1  CD              Rx   d 2 7E F4
   4.1794 1  153             Rx   d 6 46 3F 00 01 00 FF
   4.1801 1  CB              Rx   d 8 54 00 80 00 00 72 50 00
   4.1802 1  CE              Rx   d 2 80 00
   4.1884 1  047             Tx   d 7 04 00 00 00 00 5a ff 
   4.1804 1  154             Rx   d 6 46 3F 00 01 00 FF
   4.1892 1  048             Tx   d 7 04 00 00 00 00 55 44 
   4.1894 1  041             Tx   d 6 04 fa 00 03 06 aa 
   4.1896 1  042             Tx   d 6 04 fa 00 03 06 a5 
   4.1891 1  CA              Rx   d 8 54 00 80 00 00 70 70 00
   4.1892 1  CD              Rx   d 2 7E F4
   4.1894 1  153             Rx   d 6 46 3F 00 01 00 FF
   4.1900 1  CB              Rx   d 8 54 00 80 00 00 71 70 00
   4.1902 1  CE              Rx   d 2 80 00
   4.1904 1  154             Rx   d 6 46 3F 00 01 00 FF
   4.1985 1  047             Tx   d 7 44 00 00 00 00 5a af 
   4.1988 1  048             Tx   d 7 44 00 00 00 00 55 14 
   4.1989 1  041             Tx   d 6 44 fa 00 03 06 aa 
   4.1991 1  042             Tx   d 6 44 fa 00 03 06 a5 
   4.1990 1  CA              Rx   d 8 54 00 80 00 00 6F 10 00
   4.1992 1  CD              Rx   d 2 7E F4
   4.1994 1  153             Rx   d 6 46 3F 00 01 00 FF
   4.2000 1  CB              Rx   d 8 54 00 80 00 00 70 10 00
   4.2002 1  CE              Rx   d 2 80 00
   4.2004 1  154             Rx   d 6 46 3F 00 01 00 FF
   4.2085 1  047             Tx   d 7 84 00 00 00 00 5a 5f 
   4.2087 1  048             Tx   d 7 84 00 00 00 00 55 e4 
   4.2089 1  041             Tx   d 6 84 fa 00 03 06 aa 
   4.2090 1  042             Tx   d 6 84 fa 00 03 06 a5 
   4.2091 1  CA              Rx   d 8 54 00 80 00 00 6E 30 00
   4.2092 1  CD              Rx   d 2 7E F4
   4.2094 1  153             Rx   d 6 46 3F 00 01 00 FF
   4.2101 1  CB              Rx   d 8 54 00 80 00 00 6F 30 00
   4.2102 1  CE              Rx   d 2 80 00
   4.2104 1  154             Rx   d 6 46 3F 00 01 00 FF
   4.2186 1  047             Tx   d 7 c4 00 00 00 00 5a 0f 
   4.2189 1  048             Tx   d 7 c4 00 00 00 00 55 b4 
   4.2190 1  041             Tx   d 6 c4 fa 00 03 06 aa 
   4.2192 1  042             Tx   d 6 c4 fa 00 03 06 a5 
   4.2191 1  CA              Rx   d 8 54 00 80 00 00 6D 50 00
   4.2192 1  CD              Rx   d 2 7E F4
   4.2194 1  153             Rx   d 6 46 3F 00 01 00 FF
   4.2200 1  CB              Rx   d 8 54 00 80 00 00 6F 50 00
   4.2202 1  CE              Rx   d 2 80 00
   4.2204 1  154             Rx   d 6 46 3F 00 01 00 FF
   4.2283 1  047             Tx   d 7 04 00 00 00 00 5a ff 
   4.2285 1  048             Tx   d 7 04 00 00 00 00 55 44 
   4.2287 1  041             Tx   d 6 04 fa 00 03 06 aa 
   4.2289 1  042             Tx   d 6 04 fa 00 03 06 a5 
   4.2290 1  CA              Rx   d 8 54 00 80 00 00 6D 70 00
   4.2292 1  CD              Rx   d 2 7E F4
   4.2294 1  153             Rx   d 6 46 3F 00 01 00 FF
   4.2300 1  CB              Rx   d 8 54 00 80 00 00 6E 70 00
   4.2382 1  047             Tx   d 7 44 00 00 00 00 5a af 
   4.2302 1  CE              Rx   d 2 80 00
   4.2388 1  048             Tx   d 7 44 00 00 00 00 55 14 
   4.2304 1  154             Rx   d 6 46 3F 00 01 00 FF
   4.2395 1  041             Tx   d 6 44 fa 00 03 06 aa 
   4.2397 1  042             Tx   d 6 44 fa 00 03 06 a5 
   4.2391 1  CA              Rx   d 8 54 00 80 00 00 6C 10 00
   4.2392 1  CD              Rx   d 2 7E F4
   4.2394 1  153             Rx   d 6 46 3F 00 01 00 FF
   4.2401 1  CB              Rx   d 8 54 00 80 00 00 6D 10 00
   4.2402 1  CE              Rx   d 2 80 00
   4.2404 1  154             Rx   d 6 46 3F 00 01 00 FF
   4.2486 1  047             Tx   d 7 84 00 00 00 00 5a 5f 
   4.2488 1  048             Tx   d 7 84 00 00 00 00 55 e4 
   4.2489 1  041             Tx   d 6 84 fa 00 03 06 aa 
   4.2491 1  042             Tx   d 6 84 fa 00 03 06 a5 
   4.2491 1  CA              Rx   d 8 54 00 80 00 00 6B 30 00
   4.2492 1  CD              Rx   d 2 7E F4
   4.2494 1  153             Rx   d 6 46 3F 00 01 00 FF
   4.2496 1  386             Rx   d 5 B2 B2 B0 4E 00
   4.2498 1  684             Rx   d 8 00 00 00 00 00 00 00 00
   4.2501 1  CB              Rx   d 8 54 00 80 00 00 6C 30 00
   4.2502 1  CE              Rx   d 2 80 00
   4.2504 1  154             Rx   d 6 46 3F 00 01 00 FF
   4.2506 1  387             Rx   d 5 B2 B2 B0 4E 00
   4.2508 1  685             Rx   d 8 00 00 00 00 00 00 00 00
   4.2592 1  047             Tx   d 7 c4 00 00 00 00 5a 0f 
   4.2594 1  048             Tx   d 7 c4 00 00 00 00 55 b4 
   4.2595 1  041             Tx   d 6 c4 fa 00 03 06 aa 
   4.2596 1  042             Tx   d 6 c4 fa 00 03 06 a5 
   4.2591 1  CA              Rx   d 8 54 00 80 00 00 6A 50 00
   4.2592 1  CD              Rx   d 2 7E F4
   4.2594 1  153             Rx   d 6 46 3F 00 01 00 FF
   4.2601 1  CB              Rx   d 8 54 00 80 00 00 6B 50 00
   4.2602 1  CE              Rx   d 2 80 00
   4.2604 1  154             Rx   d 6 46 3F 00 01 00 FF
   4.2689 1  047             Tx   d 7 04 00 00 00 00 5a ff 
   4.2691 1  048             Tx   d 7 04 00 00 00 00 55 44 
   4.2692 1  041             Tx   d 6 04 fa 00 03 06 aa 
   4.2693 1  042             Tx   d 6 04 fa 00 03 06 a5 
   4.2691 1  CA              Rx   d 8 54 00 80 00 00 6A 70 00
   4.2692 1  CD              Rx   d 2 7E F4
   4.2694 1  153             Rx   d 6 46 3F 00 01 00 FF
   4.2700 1  CB              Rx   d 8 54 00 80 00 00 6B 70 00
   4.2702 1  CE              Rx   d 2 80 00
   4.2704 1  154             Rx   d 6 46 3F 00 01 00 FF
   4.2782 1  047             Tx   d 7 44 00 00 00 00 5a af 
   4.2784 1  048             Tx   d 7 44 00 00 00 00 55 14 
   4.2785 1  041             Tx   d 6 44 fa 00 03 06 aa 
   4.2787 1  042             Tx   d 6 44 fa 00 03 06 a5 
   4.2790 1  CA              Rx   d 8 54 00 80 00 00 69 10 00
   4.2792 1  CD              Rx   d 2 7E F4
   4.2794 1  153             Rx   d 6 46 3F 00 01 00 FF
   4.2800 1  CB              Rx   d 8 54 00 80 00 00 6A 10 00
   4.2802 1  CE              Rx   d 2 80 00
   4.2804 1  154             Rx   d 6 46 3F 00 01 00 FF
   4.2889 1  047             Tx   d 7 84 00 00 00 00 5a 5f 
   4.2893 1  048             Tx   d 7 84 00 00 00 00 55 e4 
   4.2895 1  041             Tx   d 6 84 fa 00 03 06 aa 
   4.2896 1  042             Tx   d 6 84 fa 00 03 06 a5 
   4.2891 1  CA              Rx   d 8 54 00 80 00 00 68 30 00
   4.2892 1  CD              Rx   d 2 7E F4
   4.2894 1  153             Rx   d 6 46 3F 00 01 00 FF
   4.2901 1  CB              Rx   d 8 54 00 80 00 00 69 30 00
   4.2902 1  CE              Rx   d 2 80 00
   4.2904 1  154             Rx   d 6 46 3F 00 01 00 FF
   4.2985 1  047             Tx   d 7 c4 00 00 00 00 5a 0f 
   4.2987 1  048             Tx   d 7 c4 00 00 00 00 55 b4 
   4.2988 1  041             Tx   d 6 c4 fa 00 03 06 aa 
   4.2990 1  042             Tx   d 6 c4 fa 00 03 06 a5 
   4.2991 1  CA              Rx   d 8 54 00 80 00 00 68 50 00
   4.2992 1  CD              Rx   d 2 7E F4
   4.2994 1  153             Rx   d 6 46 3F 00 01 00 FF
   4.3000 1  CB              Rx   d 8 54 00 80 00 00 68 50 00
   4.3002 1  CE              Rx   d 2 80 00
   4.3004 1  154             Rx   d 6 46 3F 00 01 00 FF
   4.3084 1  047             Tx   d 7 04 00 00 00 00 5a ff 
   4.3086 1  048             Tx   d 7 04 00 00 00 00 55 44 
   4.3087 1  041             Tx   d 6 04 fa 00 03 06 aa 
   4.3088 1  042             Tx   d 6 04 fa 00 03 06 a5 
   4.3091 1  CA              Rx   d 8 54 00 80 00 00 67 70 00
   4.3092 1  CD              Rx   d 2 7E F4
   4.3094 1  153             Rx   d 6 46 3F 00 01 00 FF
   4.3101 1  CB              Rx   d 8 54 00 80 00 00 68 70 00
   4.3102 1  CE              Rx   d 2 80 00
   4.3104 1  154             Rx   d 6 46 3F 00 01 00 FF
   4.3186 1  047             Tx   d 7 44 00 00 00 00 5a af 
   4.3187 1  048             Tx   d 7 44 00 00 00 00 55 14 
   4.3189 1  041             Tx   d 6 44 fa 00 03 06 aa 
   4.3190 1  042             Tx   d 6 44 fa 00 03 06 a5 
   4.3191 1  CA              Rx   d 8 54 00 80 00 00 66 10 00
   4.3192 1  CD              Rx   d 2 7E F4
   4.3194 1  153             Rx   d 6 46 3F 00 01 00 FF
   4.3201 1  CB              Rx   d 8 54 00 80 00 00 67 10 00
   4.3202 1  CE              Rx   d 2 80 00
   4.3204 1  154             Rx   d 6 46 3F 00 01 00 FF
   4.3284 1  047             Tx   d 7 84 00 00 00 00 5a 5f 
   4.3286 1  048             Tx   d 7 84 00 00 00 00 55 e4 
   4.3287 1  041             Tx   d 6 84 fa 00 03 06 aa 
   4.3289 1  042             Tx   d 6 84 fa 00 03 06 a5 
   4.3291 1  CA              Rx   d 8 54 00 80 00 00 65 30 00
   4.3292 1  CD              Rx   d 2 7E F4
   4.3294 1  153             Rx   d 6 46 3F 00 01 00 FF
   4.3301 1  CB              Rx   d 8 54 00 80 00 00 66 30 00
   4.3382 1  047             Tx   d 7 c4 00 00 00 00 5a 0f 
   4.3384 1  048             Tx   d 7 c4 00 00 00 00 55 b4 
   4.3385 1  041             Tx   d 6 c4 fa 00 03 06 aa 
   4.3387 1  042             Tx   d 6 c4 fa 00 03 06 a5 
   4.3302 1  CE              Rx   d 2 80 00
   4.3304 1  154             Rx   d 6 46 3F 00 01 00 FF
   4.3391 1  CA              Rx   d 8 54 00 80 00 00 65 50 00
   4.3392 1  CD              Rx   d 2 7E F4
   4.3394 1  153             Rx   d 6 46 3F 00 01 00 FF
   4.3401 1  CB              Rx   d 8 54 00 80 00 00 66 50 00
   4.3402 1  CE              Rx   d 2 80 00
   4.3404 1  154             Rx   d 6 46 3F 00 01 00 FF
   4.3480 1  047             Tx   d 7 04 00 00 00 00 5a ff 
   4.3482 1  048             Tx   d 7 04 00 00 00 00 55 44 
   4.3483 1  041             Tx   d 6 04 fa 00 03 06 aa 
   4.3485 1  042             Tx   d 6 04 fa 00 03 06 a5 
   4.3491 1  CA              Rx   d 8 54 00 80 00 00 64 70 00
   4.3492 1  CD              Rx   d 2 7E F4
   4.3494 1  153             Rx   d 6 46 3F 00 01 00 FF
   4.3496 1  386             Rx   d 5 BB B8 B8 4F 00
   4.3500 1  CB              Rx   d 8 54 00 80 00 00 65 70 00
   4.3502 1  CE              Rx   d 2 80 00
   4.3504 1  154             Rx   d 6 46 3F 00 01 00 FF
   4.3506 1  387             Rx   d 5 BB B8 B8 4F 00
   4.3617 1  047             Tx   d 7 44 00 00 00 00 5a af 
   4.3619 1  048             Tx   d 7 44 00 00 00 00 55 14 
   4.3621 1  041             Tx   d 6 44 fa 00 03 06 aa 
   4.3622 1  042             Tx   d 6 44 fa 00 03 06 a5 
   4.3591 1  CA              Rx   d 8 54 00 80 00 00 63 10 00
   4.3595 1  CD              Rx   d 2 7E F4
   4.3597 1  153             Rx   d 6 46 3F 00 01 00 FF
   4.3601 1  CB              Rx   d 8 54 00 80 00 00 64 10 00
   4.3602 1  CE              Rx   d 2 80 00
   4.3604 1  154             Rx   d 6 46 3F 00 01 00 FF
   4.3711 1  047             Tx   d 7 84 00 00 00 00 5a 5f 
   4.3713 1  048             Tx   d 7 84 00 00 00 00 55 e4 
   4.3714 1  041             Tx   d 6 84 fa 00 03 06 aa 
   4.3716 1  042             Tx   d 6 84 fa 00 03 06 a5 
   4.3691 1  CA              Rx   d 8 54 00 80 00 00 62 30 00
   4.3692 1  CD              Rx   d 2 7E F4
   4.3694 1  153             Rx   d 6 46 3F 00 01 00 FF
   4.3701 1  CB              Rx   d 8 54 00 80 00 00 63 30 00
   4.3702 1  CE              Rx   d 2 80 00
   4.3704 1  154             Rx   d 6 46 3F 00 01 00 FF
   4.3805 1  047             Tx   d 7 c4 00 00 00 00 5a 0f 
   4.3807 1  048             Tx   d 7 c4 00 00 00 00 55 b4 
   4.3808 1  041             Tx   d 6 c4 fa 00 03 06 aa 
   4.3810 1  042             Tx   d 6 c4 fa 00 03 06 a5 
   4.3791 1  CA              Rx   d 8 54 00 80 00 00 61 50 00
   4.3792 1  CD              Rx   d 2 7E F4
   4.3794 1  153             Rx   d 6 46 3F 00 01 00 FF
   4.3800 1  CB              Rx   d 8 54 00 80 00 00 63 50 00
   4.3802 1  CE              Rx   d 2 80 00
   4.3804 1  154             Rx   d 6 46 3F 00 01 00 FF
   4.3899 1  047             Tx   d 7 04 00 00 00 00 5a ff 
   4.3901 1  048             Tx   d 7 04 00 00 00 00 55 44 
   4.3902 1  041             Tx   d 6 04 fa 00 03 06 aa 
   4.3903 1  042             Tx   d 6 04 fa 00 03 06 a5 
   4.3891 1  CA              Rx   d 8 54 00 80 00 00 61 70 00
   4.3892 1  CD              Rx   d 2 7E F4
   4.3894 1  153             Rx   d 6 46 3F 00 01 00 FF
   4.3901 1  CB              Rx   d 8 54 00 80 00 00 62 70 00
   4.3902 1  CE              Rx   d 2 80 00
   4.3904 1  154             Rx   d 6 46 3F 00 01 00 FF
   4.3995 1  047             Tx   d 7 44 00 00 00 00 5a af 
   4.3997 1  048             Tx   d 7 44 00 00 00 00 55 14 
   4.3998 1  041             Tx   d 6 44 fa 00 03 06 aa 
   4.4000 1  042             Tx   d 6 44 fa 00 03 06 a5 
   4.3991 1  CA              Rx   d 8 54 00 80 00 00 60 10 00
   4.3992 1  CD              Rx   d 2 7E F4
   4.3994 1  153             Rx   d 6 46 3F 00 01 00 FF
   4.4001 1  CB              Rx   d 8 54 00 80 00 00 61 10 00
   4.4002 1  CE              Rx   d 2 80 00
   4.4004 1  154             Rx   d 6 46 3F 00 01 00 FF
   4.4088 1  047             Tx   d 7 84 00 00 00 00 5a 5f 
   4.4092 1  048             Tx   d 7 84 00 00 00 00 55 e4 
   4.4094 1  041             Tx   d 6 84 fa 00 03 06 aa 
   4.4095 1  042             Tx   d 6 84 fa 00 03 06 a5 
   4.4091 1  CA              Rx   d 8 54 00 80 00 00 5F 30 00
   4.4092 1  CD              Rx   d 2 7E F4
   4.4094 1  153             Rx   d 6 46 3F 00 01 00 FF
   4.4100 1  CB              Rx   d 8 54 00 80 00 00 61 30 00
   4.4102 1  CE              Rx   d 2 80 00
   4.4104 1  154             Rx   d 6 46 3F 00 01 00 FF
   4.4186 1  047             Tx   d 7 c4 00 00 00 00 5a 0f 
   4.4188 1  048             Tx   d 7 c4 00 00 00 00 55 b4 
   4.4190 1  041             Tx   d 6 c4 fa 00 03 06 aa 
   4.4191 1  042             Tx   d 6 c4 fa 00 03 06 a5 
   4.4190 1  CA              Rx   d 8 54 00 80 00 00 5F 50 00
   4.4192 1  CD              Rx   d 2 7E F4
   4.4194 1  153             Rx   d 6 46 3F 00 01 00 FF
   4.4201 1  CB              Rx   d 8 54 00 80 00 00 60 50 00
   4.4202 1  CE              Rx   d 2 80 00
   4.4204 1  154             Rx   d 6 46 3F 00 01 00 FF
   4.4284 1  047             Tx   d 7 04 00 00 00 00 5a ff 
   4.4286 1  048             Tx   d 7 04 00 00 00 00 55 44 
   4.4288 1  041             Tx   d 6 04 fa 00 03 06 aa 
   4.4289 1  042             Tx   d 6 04 fa 00 03 06 a5 
   4.4291 1  CA              Rx   d 8 54 00 80 00 00 5E 70 00
   4.4292 1  CD              Rx   d 2 7E F4
   4.4294 1  153             Rx   d 6 46 3F 00 01 00 FF
   4.4300 1  CB              Rx   d 8 54 00 80 00 00 5F 70 00
   4.4302 1  CE              Rx   d 2 80 00
   4.4304 1  154             Rx   d 6 46 3F 00 01 00 FF
   4.4419 1  047             Tx   d 7 44 00 00 00 00 5a af 
   4.4423 1  048             Tx   d 7 44 00 00 00 00 55 14 
   4.4427 1  041             Tx   d 6 44 fa 00 03 06 aa 
   4.4430 1  042             Tx   d 6 44 fa 00 03 06 a5 
   4.4392 1  CA              Rx   d 8 54 00 80 00 00 5D 10 00
   4.4395 1  CD              Rx   d 2 7E F4
   4.4399 1  153             Rx   d 6 46 3F 00 01 00 FF
   4.4402 1  CB              Rx   d 8 54 00 80 00 00 5E 10 00
   4.4403 1  CE              Rx   d 2 80 00
   4.4405 1  154             Rx   d 6 46 3F 00 01 00 FF
   4.4541 1  047             Tx   d 7 84 00 00 00 00 5a 5f 
   4.4546 1  048             Tx   d 7 84 00 00 00 00 55 e4 
   4.4550 1  041             Tx   d 6 84 fa 00 03 06 aa 
   4.4490 1  CA              Rx   d 8 54 00 80 00 00 5C 30 00
   4.4492 1  CD              Rx   d 2 7E F4
   4.4494 1  153             Rx   d 6 46 3F 00 01 00 FF
   4.4495 1  386             Rx   d 5 C2 C2 C0 50 00
   4.4500 1  CB              Rx   d 8 54 00 80 00 00 5D 30 00
   4.4501 1  CE              Rx   d 2 80 00
   4.4503 1  154             Rx   d 6 46 3F 00 01 00 FF
   4.4505 1  387             Rx   d 5 C2 C2 C0 50 FF
   4.4596 1  042             Tx   d 6 84 fa 00 03 06 a5 
   4.4590 1  CA              Rx   d 8 54 00 80 00 00 5B 50 00
   4.4591 1  CD              Rx   d 2 7E F4
   4.4593 1  153             Rx   d 6 46 3F 00 01 00 FF
   4.4600 1  CB              Rx   d 8 54 00 80 00 00 5C 50 00
   4.4601 1  CE              Rx   d 2 80 00
   4.4603 1  154             Rx   d 6 46 3F 00 01 00 FF
   4.4722 1  047             Tx   d 7 c4 00 00 00 00 5a 0f 
   4.4726 1  048             Tx   d 7 c4 00 00 00 00 55 b4 
   4.4730 1  041             Tx   d 6 c4 fa 00 03 06 aa 
   4.4733 1  042             Tx   d 6 c4 fa 00 03 06 a5 
   4.4691 1  CA              Rx   d 8 54 00 80 00 00 5B 70 00
   4.4694 1  CD              Rx   d 2 7E F4
   4.4699 1  153             Rx   d 6 46 3F 00 01 00 FF
   4.4703 1  CB              Rx   d 8 54 00 80 00 00 5C 70 00
   4.4704 1  CE              Rx   d 2 80 00
   4.4706 1  154             Rx   d 6 46 3F 00 01 00 FF
   4.4790 1  CA              Rx   d 8 54 00 80 00 00 5A 10 00
   4.4791 1  CD              Rx   d 2 7E F4
   4.4793 1  153             Rx   d 6 46 3F 00 01 00 FF
   4.4800 1  CB              Rx   d 8 54 00 80 00 00 5B 10 00
   4.4801 1  CE              Rx   d 2 80 00
   4.4803 1  154             Rx   d 6 46 3F 00 01 00 FF
   4.4877 1  047             Tx   d 7 04 00 00 00 00 5a ff 
   4.4891 1  048             Tx   d 7 04 00 00 00 00 55 44 
   4.4895 1  041             Tx   d 6 04 fa 00 03 06 aa 
   4.4899 1  042             Tx   d 6 04 fa 00 03 06 a5 
   4.4891 1  CA              Rx   d 8 54 00 80 00 00 59 30 00
   4.4892 1  CD              Rx   d 2 7E F4
   4.4894 1  153             Rx   d 6 46 3F 00 01 00 FF
   4.4900 1  CB              Rx   d 8 54 00 80 00 00 5A 30 00
   4.4902 1  CE              Rx   d 2 80 00
   4.4904 1  154             Rx   d 6 46 3F 00 01 00 FF
   4.5034 1  047             Tx   d 7 44 00 00 00 00 5a af 
   4.5038 1  048             Tx   d 7 44 00 00 00 00 55 14 
   4.5042 1  041             Tx   d 6 44 fa 00 03 06 aa 
   4.4990 1  CA              Rx   d 8 54 00 80 00 00 58 50 00
   4.4992 1  CD              Rx   d 2 7E F4
   4.4994 1  153             Rx   d 6 46 3F 00 01 00 FF
   4.5003 1  CB              Rx   d 8 54 00 80 00 00 59 50 00
   4.5004 1  CE              Rx   d 2 80 00
   4.5008 1  154             Rx   d 6 46 3F 00 01 00 FF
   4.5079 1  042             Tx   d 6 44 fa 00 03 06 a5 
   4.5090 1  CA              Rx   d 8 54 00 80 00 00 58 70 00
   4.5091 1  CD              Rx   d 2 7E F4
   4.5094 1  153             Rx   d 6 46 3F 00 01 00 FF
   4.5100 1  CB              Rx   d 8 54 00 80 00 00 59 70 00
   4.5101 1  CE              Rx   d 2 80 00
   4.5103 1  154             Rx   d 6 46 3F 00 01 00 FF
   4.5227 1  047             Tx   d 7 84 00 00 00 00 5a 5f 
   4.5231 1  048             Tx   d 7 84 00 00 00 00 55 e4 
   4.5235 1  041             Tx   d 6 84 fa 00 03 06 aa 
   4.5238 1  042             Tx   d 6 84 fa 00 03 06 a5 
   4.5190 1  CA              Rx   d 8 54 00 80 00 00 57 10 00
   4.5192 1  CD              Rx   d 2 7E F4
   4.5194 1  153             Rx   d 6 46 3F 00 01 00 FF
   4.5200 1  CB              Rx   d 8 54 00 80 00 00 58 10 00
   4.5203 1  CE              Rx   d 2 80 00
   4.5205 1  154             Rx   d 6 46 3F 00 01 00 FF
   4.5290 1  CA              Rx   d 8 54 00 80 00 00 56 30 00
   4.5292 1  CD              Rx   d 2 7E F4
   4.5294 1  153             Rx   d 6 46 3F 00 01 00 FF
   4.5300 1  CB              Rx   d 8 54 00 80 00 00 57 30 00
   4.5301 1  CE              Rx   d 2 80 00
   4.5303 1  154             Rx   d 6 46 3F 00 01 00 FF
   4.5394 1  047             Tx   d 7 c4 00 00 00 00 5a 0f 
   4.5399 1  048             Tx   d 7 c4 00 00 00 00 55 b4 
   4.5402 1  041             Tx   d 6 c4 fa 00 03 06 aa 
   4.5406 1  042             Tx   d 6 c4 fa 00 03 06 a5 
   4.5391 1  CA              Rx   d 8 54 00 80 00 00 55 50 00
   4.5392 1  CD              Rx   d 2 7E F4
   4.5394 1  153             Rx   d 6 46 3F 00 01 00 FF
   4.5400 1  CB              Rx   d 8 54 00 80 00 00 56 50 00
   4.5402 1  CE              Rx   d 2 80 00
   4.5404 1  154             Rx   d 6 46 3F 00 01 00 FF
   4.5536 1  047             Tx   d 7 04 00 00 00 00 5a ff 
   4.5540 1  048             Tx   d 7 04 00 00 00 00 55 44 
   4.5545 1  041             Tx   d 6 04 fa 00 03 06 aa 
   4.5490 1  CA              Rx   d 8 54 00 80 00 00 54 70 00
   4.5492 1  CD              Rx   d 2 7E F4
   4.5494 1  153             Rx   d 6 46 3F 00 01 00 FF
   4.5496 1  386             Rx   d 5 CB C8 C8 51 00
   4.5500 1  CB              Rx   d 8 54 00 80 00 00 56 70 00
   4.5504 1  CE              Rx   d 2 80 00
   4.5505 1  154             Rx   d 6 46 3F 00 01 00 FF
   4.5510 1  387             Rx   d 5 CB C8 C8 51 FF
   4.5591 1  042             Tx   d 6 04 fa 00 03 06 a5 
   4.5590 1  CA              Rx   d 8 54 00 80 00 00 54 10 00
   4.5592 1  CD              Rx   d 2 7E F4
   4.5594 1  153             Rx   d 6 46 3F 00 01 00 FF
   4.5600 1  CB              Rx   d 8 54 00 80 00 00 55 10 00
   4.5601 1  CE              Rx   d 2 80 00
   4.5603 1  154             Rx   d 6 46 3F 00 01 00 FF
   4.5729 1  047             Tx   d 7 44 00 00 00 00 5a af 
   4.5733 1  048             Tx   d 7 44 00 00 00 00 55 14 
   4.5736 1  041             Tx   d 6 44 fa 00 03 06 aa 
   4.5739 1  042             Tx   d 6 44 fa 00 03 06 a5 
   4.5691 1  CA              Rx   d 8 54 00 80 00 00 53 30 00
   4.5692 1  CD              Rx   d 2 7E F4
   4.5694 1  153             Rx   d 6 46 3F 00 01 00 FF
   4.5701 1  CB              Rx   d 8 54 00 80 00 00 54 30 00
   4.5705 1  CE              Rx   d 2 80 00
   4.5709 1  154             Rx   d 6 46 3F 00 01 00 FF
   4.5790 1  CA              Rx   d 8 54 00 80 00 00 52 50 00
   4.5792 1  CD              Rx   d 2 7E F4
   4.5794 1  153             Rx   d 6 46 3F 00 01 00 FF
   4.5800 1  CB              Rx   d 8 54 00 80 00 00 53 50 00
   4.5801 1  CE              Rx   d 2 80 00
   4.5803 1  154             Rx   d 6 46 3F 00 01 00 FF
   4.5884 1  047             Tx   d 7 84 00 00 00 00 5a 5f 
   4.5898 1  048             Tx   d 7 84 00 00 00 00 55 e4 
   4.5902 1  041             Tx   d 6 84 fa 00 03 06 aa 
   4.5905 1  042             Tx   d 6 84 fa 00 03 06 a5 
   4.5891 1  CA              Rx   d 8 54 00 80 00 00 51 70 00
   4.5892 1  CD              Rx   d 2 7E F4
   4.5894 1  153             Rx   d 6 46 3F 00 01 00 FF
   4.5900 1  CB              Rx   d 8 54 00 80 00 00 53 70 00
   4.5902 1  CE              Rx   d 2 80 00
   4.5904 1  154             Rx   d 6 46 3F 00 01 00 FF
   4.6027 1  047             Tx   d 7 c4 00 00 00 00 5a 0f 
   4.6031 1  048             Tx   d 7 c4 00 00 00 00 55 b4 
   4.6037 1  041             Tx   d 6 c4 fa 00 03 06 aa 
   4.6041 1  042             Tx   d 6 c4 fa 00 03 06 a5 
