date Sat Sep 09 02:11:21 AM 2018
base hex  timestamps absolute
internal events logged
Begin Triggerblock Sat Sep 09 02:11:21 AM 2018
   0.0005 Start of measurement
   0.0007 Start of logging...
   0.0026 1  CA              Rx   d 8 54 00 80 00 05 67 70 00
   2.7245 1  CD              Rx   d 2 7E F4
   2.7247 1  153             Rx   d 6 3F 3F 00 01 00 FF
   2.7254 1  CB              Rx   d 8 54 00 80 00 05 65 70 00
   2.7256 1  CE              Rx   d 2 80 00
   2.7258 1  154             Rx   d 6 3F 3F 00 01 00 FF
   2.7344 1  CA              Rx   d 8 54 00 80 00 05 67 10 00
   2.7345 1  CD              Rx   d 2 7E F4
   2.7347 1  153             Rx   d 6 3F 3F 00 01 00 FF
   2.7355 1  CB              Rx   d 8 54 00 80 00 05 65 10 00
   2.7356 1  CE              Rx   d 2 80 00
   2.7358 1  154             Rx   d 6 3F 3F 00 01 00 FF
   2.7444 1  CA              Rx   d 8 54 00 80 00 05 67 30 00
   2.7445 1  CD              Rx   d 2 7E F4
   2.7447 1  153             Rx   d 6 3F 3F 00 01 00 FF
   2.7454 1  CB              Rx   d 8 54 00 80 00 05 65 30 00
   2.7456 1  CE              Rx   d 2 80 00
   2.7458 1  154             Rx   d 6 3F 3F 00 01 00 FF
   2.7544 1  CA              Rx   d 8 54 00 80 00 05 67 50 00
   2.7545 1  CD              Rx   d 2 7E F4
   2.7547 1  153             Rx   d 6 3F 3F 00 01 00 FF
   2.7554 1  CB              Rx   d 8 54 00 80 00 05 65 50 00
   2.7556 1  CE              Rx   d 2 80 00
   2.7558 1  154             Rx   d 6 3F 3F 00 01 00 FF
   2.7644 1  CA              Rx   d 8 54 00 80 00 05 67 70 00
   2.7646 1  CD              Rx   d 2 7E F4
   2.7648 1  153             Rx   d 6 3F 3F 00 01 00 FF
   2.7650 1  386             Rx   d 5 3A 3B 3A 53 45
   2.7652 1  684             Rx   d 8 00 00 00 00 00 00 00 00
   2.7655 1  CB              Rx   d 8 54 00 80 00 05 65 70 00
   2.7656 1  CE              Rx   d 2 80 00
   2.7658 1  154             Rx   d 6 3F 3F 00 01 00 FF
   2.7660 1  387             Rx   d 5 3A 3B 3A 53 D2
   2.7663 1  685             Rx   d 8 00 00 00 00 00 00 00 00
   2.7744 1  CA              Rx   d 8 54 00 80 00 05 67 10 00
   2.7745 1  CD              Rx   d 2 7E F4
   2.7747 1  153             Rx   d 6 3F 3F 00 01 00 FF
   2.7754 1  CB              Rx   d 8 54 00 80 00 05 65 10 00
   2.7756 1  CE              Rx   d 2 80 00
   2.7758 1  154             Rx   d 6 3F 3F 00 01 00 FF
   2.7844 1  CA              Rx   d 8 54 00 80 00 05 67 30 00
   2.7845 1  CD              Rx   d 2 7E F4
   2.7847 1  153             Rx   d 6 3F 3F 00 01 00 FF
   2.7854 1  CB              Rx   d 8 54 00 80 00 05 65 30 00
   2.7856 1  CE              Rx   d 2 80 00
   2.7858 1  154             Rx   d 6 3F 3F 00 01 00 FF
   2.7944 1  CA              Rx   d 8 54 00 80 00 05 67 50 00
   2.7945 1  CD              Rx   d 2 7E F4
   2.7947 1  153             Rx   d 6 3F 3F 00 01 00 FF
   2.7955 1  CB              Rx   d 8 54 00 80 00 05 65 50 00
   2.7956 1  CE              Rx   d 2 80 00
   2.7958 1  154             Rx   d 6 3F 3F 00 01 00 FF
   2.8044 1  CA              Rx   d 8 54 00 80 00 05 67 70 00
   2.8045 1  CD              Rx   d 2 7E F4
   2.8047 1  153             Rx   d 6 3F 3F 00 01 00 FF
   2.8054 1  CB              Rx   d 8 54 00 80 00 05 66 70 00
   2.8056 1  CE              Rx   d 2 80 00
   2.8058 1  154             Rx   d 6 3F 3F 00 01 00 FF
   2.8144 1  CA              Rx   d 8 54 00 80 00 05 67 10 00
   2.8145 1  CD              Rx   d 2 7E F4
   2.8147 1  153             Rx   d 6 3F 3F 00 01 00 FF
   2.8154 1  CB              Rx   d 8 54 00 80 00 05 66 10 00
   2.8156 1  CE              Rx   d 2 80 00
   2.8158 1  154             Rx   d 6 3F 3F 00 01 00 FF
   2.8244 1  CA              Rx   d 8 54 00 80 00 05 67 30 00
   2.8245 1  CD              Rx   d 2 7E F4
   2.8247 1  153             Rx   d 6 3F 3F 00 01 00 FF
   2.8254 1  CB              Rx   d 8 54 00 80 00 05 66 30 00
   2.8256 1  CE              Rx   d 2 80 00
   2.8258 1  154             Rx   d 6 3F 3F 00 01 00 FF
   2.8344 1  CA              Rx   d 8 54 00 80 00 05 67 50 00
   2.8345 1  CD              Rx   d 2 7E F4
   2.8347 1  153             Rx   d 6 3F 3F 00 01 00 FF
   2.8354 1  CB              Rx   d 8 54 00 80 00 05 66 50 00
   2.8356 1  CE              Rx   d 2 80 00
   2.8358 1  154             Rx   d 6 3F 3F 00 01 00 FF
   2.8444 1  CA              Rx   d 8 54 00 80 00 05 67 70 00
   2.8445 1  CD              Rx   d 2 7E F4
   2.8447 1  153             Rx   d 6 3F 3F 00 01 00 FF
   2.8455 1  CB              Rx   d 8 54 00 80 00 05 65 70 00
   2.8456 1  CE              Rx   d 2 80 00
   2.8458 1  154             Rx   d 6 3F 3F 00 01 00 FF
   2.8544 1  CA              Rx   d 8 54 00 80 00 05 67 10 00
   2.8545 1  CD              Rx   d 2 7E F4
   2.8547 1  153             Rx   d 6 3F 3F 00 01 00 FF
   2.8554 1  CB              Rx   d 8 54 00 80 00 05 65 10 00
   2.8556 1  CE              Rx   d 2 80 00
   2.8558 1  154             Rx   d 6 3F 3F 00 01 00 FF
   2.8644 1  CA              Rx   d 8 54 00 80 00 05 67 30 00
   2.8645 1  CD              Rx   d 2 7E F4
   2.8647 1  153             Rx   d 6 3F 3F 00 01 00 FF
   2.8654 1  386             Rx   d 5 42 43 42 40 30
   2.8656 1  CE              Rx   d 2 80 00
   2.8658 1  154             Rx   d 6 3F 3F 00 01 00 FF
   2.8660 1  387             Rx   d 5 42 43 42 40 30
   2.8744 1  CA              Rx   d 8 54 00 80 00 05 67 50 00
   2.8745 1  CD              Rx   d 2 7E F4
   2.8747 1  153             Rx   d 6 3F 3F 00 01 00 FF
   2.8755 1  CB              Rx   d 8 54 00 80 00 05 66 50 00
   2.8756 1  CE              Rx   d 2 80 00
   2.8758 1  154             Rx   d 6 3F 3F 00 01 00 FF
   2.8844 1  CA              Rx   d 8 54 00 80 00 05 67 70 00
   2.8845 1  CD              Rx   d 2 7E F4
   2.8847 1  153             Rx   d 6 3F 3F 00 01 00 FF
   2.8854 1  CB              Rx   d 8 54 00 80 00 05 65 70 00
   2.8856 1  CE              Rx   d 2 80 00
   2.8858 1  154             Rx   d 6 3F 3F 00 01 00 FF
   2.8944 1  CA              Rx   d 8 54 00 80 00 05 66 10 00
   2.8945 1  CD              Rx   d 2 7E F4
   2.8947 1  153             Rx   d 6 3F 3F 00 01 00 FF
   2.8954 1  CB              Rx   d 8 54 00 80 00 05 66 10 00
   2.8956 1  CE              Rx   d 2 80 00
   2.8958 1  154             Rx   d 6 3F 3F 00 01 00 FF
   2.8931 1  047             Tx   d 7 84 00 00 00 00 5a 5f 
   2.8933 1  048             Tx   d 7 84 00 00 00 00 55 e4 
   2.8935 1  041             Tx   d 6 84 fa 00 03 06 aa 
   2.8936 1  042             Tx   d 6 84 fa 00 03 06 a5 
   2.9044 1  CA              Rx   d 8 54 00 80 00 05 66 30 00
   2.9045 1  CD              Rx   d 2 7E F4
   2.9035 1  047             Tx   d 7 c4 00 00 00 00 5a 0f 
   2.9047 1  153             Rx   d 6 3F 3F 00 01 00 FF
   2.9040 1  048             Tx   d 7 c4 00 00 00 00 55 b4 
   2.9054 1  CB              Rx   d 8 54 00 80 00 05 66 30 00
   2.9056 1  CE              Rx   d 2 80 00
   2.9058 1  154             Rx   d 6 3F 3F 00 01 00 FF
   2.9052 1  041             Tx   d 6 c4 fa 00 03 06 aa 
   2.9054 1  042             Tx   d 6 c4 fa 00 03 06 a5 
   2.9144 1  CA              Rx   d 8 54 00 80 00 05 67 50 00
   2.9145 1  CD              Rx   d 2 7E F4
   2.9147 1  153             Rx   d 6 3F 3F 00 01 00 FF
   2.9154 1  CB              Rx   d 8 54 00 80 00 05 66 50 00
   2.9156 1  CE              Rx   d 2 80 00
   2.9158 1  154             Rx   d 6 3F 3F 00 01 00 FF
   2.9155 1  047             Tx   d 7 04 00 00 00 00 5a ff 
   2.9158 1  048             Tx   d 7 04 00 00 00 00 55 44 
   2.9160 1  041             Tx   d 6 04 fa 00 03 06 aa 
   2.9161 1  042             Tx   d 6 04 fa 00 03 06 a5 
   2.9244 1  CA              Rx   d 8 54 00 80 00 05 67 70 00
   2.9246 1  CD              Rx   d 2 7E F4
   2.9248 1  153             Rx   d 6 3F 3F 00 01 00 FF
   2.9255 1  CB              Rx   d 8 54 00 80 00 05 65 70 00
   2.9256 1  CE              Rx   d 2 80 00
   2.9258 1  154             Rx   d 6 3F 3F 00 01 00 FF
   2.9252 1  047             Tx   d 7 44 00 00 00 00 5a af 
   2.9253 1  048             Tx   d 7 44 00 00 00 00 55 14 
   2.9255 1  041             Tx   d 6 44 fa 00 03 06 aa 
   2.9256 1  042             Tx   d 6 44 fa 00 03 06 a5 
   2.9344 1  CA              Rx   d 8 54 00 80 00 05 67 10 00
   2.9345 1  CD              Rx   d 2 7E F4
   2.9348 1  153             Rx   d 6 3F 3F 00 01 00 FF
   2.9354 1  CB              Rx   d 8 54 00 80 00 05 65 10 00
   2.9356 1  CE              Rx   d 2 80 00
   2.9358 1  154             Rx   d 6 3F 3F 00 01 00 FF
   2.9348 1  047             Tx   d 7 84 00 00 00 00 5a 5f 
   2.9350 1  048             Tx   d 7 84 00 00 00 00 55 e4 
   2.9351 1  041             Tx   d 6 84 fa 00 03 06 aa 
   2.9353 1  042             Tx   d 6 84 fa 00 03 06 a5 
   2.9444 1  CA              Rx   d 8 54 00 80 00 05 67 30 00
   2.9446 1  CD              Rx   d 2 7E F4
   2.9448 1  153             Rx   d 6 3F 3F 00 01 00 FF
   2.9455 1  CB              Rx   d 8 54 00 80 00 05 65 30 00
   2.9456 1  CE              Rx   d 2 80 00
   2.9458 1  154             Rx   d 6 3F 3F 00 01 00 FF
   2.9450 1  047             Tx   d 7 c4 00 00 00 00 5a 0f 
   2.9452 1  048             Tx   d 7 c4 00 00 00 00 55 b4 
   2.9453 1  041             Tx   d 6 c4 fa 00 03 06 aa 
   2.9454 1  042             Tx   d 6 c4 fa 00 03 06 a5 
   2.9544 1  CA              Rx   d 8 54 00 80 00 05 67 50 00
   2.9546 1  CD              Rx   d 2 7E F4
   2.9548 1  153             Rx   d 6 3F 3F 00 01 00 FF
   2.9555 1  CB              Rx   d 8 54 00 80 00 05 65 50 00
   2.9556 1  CE              Rx   d 2 80 00
   2.9558 1  154             Rx   d 6 3F 3F 00 01 00 FF
   2.9544 1  047             Tx   d 7 04 00 00 00 00 5a ff 
   2.9546 1  048             Tx   d 7 04 00 00 00 00 55 44 
   2.9548 1  041             Tx   d 6 04 fa 00 03 06 aa 
   2.9549 1  042             Tx   d 6 04 fa 00 03 06 a5 
   2.9644 1  CA              Rx   d 8 54 00 80 00 05 67 70 00
   2.9646 1  CD              Rx   d 2 7E F4
   2.9648 1  153             Rx   d 6 3F 3F 00 01 00 FF
   2.9650 1  386             Rx   d 5 4B 4A 4A 41 35
   2.9654 1  CB              Rx   d 8 54 00 80 00 05 65 70 00
   2.9643 1  047             Tx   d 7 44 00 00 00 00 5a af 
   2.9656 1  CE              Rx   d 2 80 00
   2.9658 1  154             Rx   d 6 3F 3F 00 01 00 FF
   2.9660 1  387             Rx   d 5 4B 4A 4A 41 35
   2.9657 1  048             Tx   d 7 44 00 00 00 00 55 14 
   2.9659 1  041             Tx   d 6 44 fa 00 03 06 aa 
   2.9660 1  042             Tx   d 6 44 fa 00 03 06 a5 
   2.9744 1  CA              Rx   d 8 54 00 80 00 05 67 10 00
   2.9746 1  CD              Rx   d 2 7E F4
   2.9748 1  153             Rx   d 6 3F 3F 00 01 00 FF
   2.9755 1  CB              Rx   d 8 54 00 80 00 05 65 10 00
   2.9756 1  CE              Rx   d 2 80 00
   2.9758 1  154             Rx   d 6 3F 3F 00 01 00 FF
   2.9749 1  047             Tx   d 7 84 00 00 00 00 5a 5f 
   2.9751 1  048             Tx   d 7 84 00 00 00 00 55 e4 
   2.9752 1  041             Tx   d 6 84 fa 00 03 06 aa 
   2.9753 1  042             Tx   d 6 84 fa 00 03 06 a5 
   2.9844 1  CA              Rx   d 8 54 00 80 00 05 67 30 00
   2.9846 1  CD              Rx   d 2 7E F4
   2.9848 1  153             Rx   d 6 3F 3F 00 01 00 FF
   2.9854 1  CB              Rx   d 8 54 00 80 00 05 66 30 00
   2.9856 1  CE              Rx   d 2 80 00
   2.9858 1  154             Rx   d 6 3F 3F 00 01 00 FF
   2.9848 1  047             Tx   d 7 c4 00 00 00 00 5a 0f 
   2.9850 1  048             Tx   d 7 c4 00 00 00 00 55 b4 
   2.9852 1  041             Tx   d 6 c4 fa 00 03 06 aa 
   2.9853 1  042             Tx   d 6 c4 fa 00 03 06 a5 
   2.9945 1  CA              Rx   d 8 54 00 80 00 05 67 50 00
   2.9946 1  CD              Rx   d 2 7E F4
   2.9948 1  153             Rx   d 6 3F 3F 00 01 00 FF
   2.9954 1  CB              Rx   d 8 54 00 80 00 05 66 50 00
   2.9956 1  CE              Rx   d 2 80 00
   2.9958 1  154             Rx   d 6 3F 3F 00 01 00 FF
   2.9949 1  047             Tx   d 7 04 00 00 00 00 5a ff 
   2.9950 1  048             Tx   d 7 04 00 00 00 00 55 44 
   2.9952 1  041             Tx   d 6 04 fa 00 03 06 aa 
   2.9953 1  042             Tx   d 6 04 fa 00 03 06 a5 
   3.0044 1  CA              Rx   d 8 54 00 80 00 05 67 70 00
   3.0046 1  CD              Rx   d 2 7E F4
   3.0048 1  153             Rx   d 6 3F 3F 00 01 00 FF
   3.0055 1  CB              Rx   d 8 54 00 80 00 05 66 70 00
   3.0056 1  CE              Rx   d 2 80 00
   3.0058 1  154             Rx   d 6 3F 3F 00 01 00 FF
   3.0046 1  047             Tx   d 7 44 00 00 00 00 5a af 
   3.0048 1  048             Tx   d 7 44 00 00 00 00 55 14 
   3.0050 1  041             Tx   d 6 44 fa 00 03 06 aa 
   3.0051 1  042             Tx   d 6 44 fa 00 03 06 a5 
   3.0145 1  CA              Rx   d 8 54 00 80 00 05 67 10 00
   3.0146 1  CD              Rx   d 2 7E F4
   3.0148 1  153             Rx   d 6 3F 3F 00 01 00 FF
   3.0154 1  CB              Rx   d 8 54 00 80 00 05 66 10 00
   3.0156 1  CE              Rx   d 2 80 00
   3.0158 1  154             Rx   d 6 3F 3F 00 01 00 FF
   3.0146 1  047             Tx   d 7 84 00 00 00 00 5a 5f 
   3.0148 1  048             Tx   d 7 84 00 00 00 00 55 e4 
   3.0150 1  041             Tx   d 6 84 fa 00 03 06 aa 
   3.0151 1  042             Tx   d 6 84 fa 00 03 06 a5 
   3.0244 1  CA              Rx   d 8 54 00 80 00 05 67 30 00
   3.0246 1  CD              Rx   d 2 7E F4
   3.0248 1  153             Rx   d 6 3F 3F 00 01 00 FF
   3.0255 1  CB              Rx   d 8 54 00 80 00 05 66 30 00
   3.0256 1  CE              Rx   d 2 80 00
   3.0258 1  154             Rx   d 6 3F 3F 00 01 00 FF
   3.0244 1  047             Tx   d 7 c4 00 00 00 00 5a 0f 
   3.0246 1  048             Tx   d 7 c4 00 00 00 00 55 b4 
   3.0247 1  041             Tx   d 6 c4 fa 00 03 06 aa 
   3.0249 1  042             Tx   d 6 c4 fa 00 03 06 a5 
   3.0344 1  CA              Rx   d 8 54 00 80 00 05 67 50 00
   3.0346 1  CD              Rx   d 2 7E F4
   3.0348 1  153             Rx   d 6 3F 3F 00 01 00 FF
   3.0355 1  CB              Rx   d 8 54 00 80 00 05 66 50 00
   3.0356 1  CE              Rx   d 2 80 00
   3.0358 1  154             Rx   d 6 3F 3F 00 01 00 FF
   3.0346 1  047             Tx   d 7 04 00 00 00 00 5a ff 
   3.0350 1  048             Tx   d 7 04 00 00 00 00 55 44 
   3.0352 1  041             Tx   d 6 04 fa 00 03 06 aa 
   3.0353 1  042             Tx   d 6 04 fa 00 03 06 a5 
   3.0444 1  CA              Rx   d 8 54 00 80 00 05 66 70 00
   3.0445 1  CD              Rx   d 2 7E F4
   3.0448 1  153             Rx   d 6 3F 3F 00 01 00 FF
   3.0454 1  CB              Rx   d 8 54 00 80 00 05 66 70 00
   3.0456 1  CE              Rx   d 2 80 00
   3.0458 1  154             Rx   d 6 3F 3F 00 01 00 FF
   3.0453 1  047             Tx   d 7 44 00 00 00 00 5a af 
   3.0455 1  048             Tx   d 7 44 00 00 00 00 55 14 
   3.0457 1  041             Tx   d 6 44 fa 00 03 06 aa 
   3.0458 1  042             Tx   d 6 44 fa 00 03 06 a5 
   3.0544 1  CA              Rx   d 8 54 00 80 00 05 66 10 00
   3.0546 1  CD              Rx   d 2 7E F4
   3.0548 1  153             Rx   d 6 3F 3F 00 01 00 FF
   3.0555 1  CB              Rx   d 8 54 00 80 00 05 66 10 00
   3.0556 1  CE              Rx   d 2 80 00
   3.0558 1  154             Rx   d 6 3F 3F 00 01 00 FF
   3.0546 1  047             Tx   d 7 84 00 00 00 00 5a 5f 
   3.0548 1  048             Tx   d 7 84 00 00 00 00 55 e4 
   3.0549 1  041             Tx   d 6 84 fa 00 03 06 aa 
   3.0551 1  042             Tx   d 6 84 fa 00 03 06 a5 
   3.0644 1  CA              Rx   d 8 54 00 80 00 05 66 30 00
   3.0646 1  CD              Rx   d 2 7E F4
   3.0648 1  153             Rx   d 6 3F 3F 00 01 00 FF
   3.0649 1  386             Rx   d 5 53 53 52 42 41
   3.0654 1  CB              Rx   d 8 54 00 80 00 05 66 30 00
   3.0656 1  CE              Rx   d 2 80 00
   3.0658 1  154             Rx   d 6 3F 3F 00 01 00 FF
   3.0660 1  387             Rx   d 5 53 53 52 42 42
   3.0652 1  047             Tx   d 7 c4 00 00 00 00 5a 0f 
   3.0654 1  048             Tx   d 7 c4 00 00 00 00 55 b4 
   3.0655 1  041             Tx   d 6 c4 fa 00 03 06 aa 
   3.0656 1  042             Tx   d 6 c4 fa 00 03 06 a5 
   3.0744 1  CA              Rx   d 8 54 00 80 00 05 66 50 00
   3.0746 1  CD              Rx   d 2 7E F4
   3.0748 1  153             Rx   d 6 3F 3F 00 01 00 FF
   3.0754 1  CB              Rx   d 8 54 00 80 00 05 66 50 00
   3.0756 1  CE              Rx   d 2 80 00
   3.0758 1  154             Rx   d 6 3F 3F 00 01 00 FF
   3.0747 1  047             Tx   d 7 04 00 00 00 00 5a ff 
   3.0748 1  048             Tx   d 7 04 00 00 00 00 55 44 
   3.0750 1  041             Tx   d 6 04 fa 00 03 06 aa 
   3.0751 1  042             Tx   d 6 04 fa 00 03 06 a5 
   3.0844 1  CA              Rx   d 8 54 00 80 00 05 66 70 00
   3.0846 1  CD              Rx   d 2 7E F4
   3.0848 1  153             Rx   d 6 3F 3F 00 01 00 FF
   3.0855 1  CB              Rx   d 8 54 00 80 00 05 66 70 00
   3.0856 1  CE              Rx   d 2 80 00
   3.0858 1  154             Rx   d 6 3F 3F 00 01 00 FF
   3.0849 1  047             Tx   d 7 44 00 00 00 00 5a af 
   3.0851 1  048             Tx   d 7 44 00 00 00 00 55 14 
   3.0852 1  041             Tx   d 6 44 fa 00 03 06 aa 
   3.0854 1  042             Tx   d 6 44 fa 00 03 06 a5 
   3.0944 1  CA              Rx   d 8 54 00 80 00 05 66 10 00
   3.0945 1  CD              Rx   d 2 7E F4
   3.0948 1  153             Rx   d 6 3F 3F 00 01 00 FF
   3.0954 1  CB              Rx   d 8 54 00 80 00 05 66 10 00
   3.0956 1  CE              Rx   d 2 80 00
   3.0958 1  154             Rx   d 6 3F 3F 00 01 00 FF
   3.0950 1  047             Tx   d 7 84 00 00 00 00 5a 5f 
   3.0952 1  048             Tx   d 7 84 00 00 00 00 55 e4 
   3.0953 1  041             Tx   d 6 84 fa 00 03 06 aa 
   3.0955 1  042             Tx   d 6 84 fa 00 03 06 a5 
   3.1044 1  CA              Rx   d 8 54 00 80 00 05 66 30 00
   3.1046 1  CD              Rx   d 2 7E F4
   3.1048 1  153             Rx   d 6 3F 3F 00 01 00 FF
   3.1055 1  CB              Rx   d 8 54 00 80 00 05 65 30 00
   3.1056 1  CE              Rx   d 2 80 00
   3.1058 1  154             Rx   d 6 3F 3F 00 01 00 FF
   3.1048 1  047             Tx   d 7 c4 00 00 00 00 5a 0f 
   3.1050 1  048             Tx   d 7 c4 00 00 00 00 55 b4 
   3.1051 1  041             Tx   d 6 c4 fa 00 03 06 aa 
   3.1052 1  042             Tx   d 6 c4 fa 00 03 06 a5 
   3.1144 1  CA              Rx   d 8 54 00 80 00 05 66 50 00
   3.1146 1  CD              Rx   d 2 7E F4
   3.1148 1  153             Rx   d 6 3F 3F 00 01 00 FF
   3.1155 1  CB              Rx   d 8 54 00 80 00 05 65 50 00
   3.1156 1  CE              Rx   d 2 80 00
   3.1158 1  154             Rx   d 6 3F 3F 00 01 00 FF
   3.1150 1  047             Tx   d 7 04 00 00 00 00 5a ff 
   3.1152 1  048             Tx   d 7 04 00 00 00 00 55 44 
   3.1153 1  041             Tx   d 6 04 fa 00 03 06 aa 
   3.1155 1  042             Tx   d 6 04 fa 00 03 06 a5 
   3.1244 1  CA              Rx   d 8 54 00 80 00 05 66 70 00
   3.1245 1  CD              Rx   d 2 7E F4
   3.1248 1  153             Rx   d 6 3F 3F 00 01 00 FF
   3.1254 1  CB              Rx   d 8 54 00 80 00 05 65 70 00
   3.1256 1  CE              Rx   d 2 80 00
   3.1258 1  154             Rx   d 6 3F 3F 00 01 00 FF
   3.1248 1  047             Tx   d 7 44 00 00 00 00 5a af 
   3.1250 1  048             Tx   d 7 44 00 00 00 00 55 14 
   3.1251 1  041             Tx   d 6 44 fa 00 03 06 aa 
   3.1253 1  042             Tx   d 6 44 fa 00 03 06 a5 
   3.1344 1  CA              Rx   d 8 54 00 80 00 05 66 10 00
   3.1346 1  CD              Rx   d 2 7E F4
   3.1348 1  153             Rx   d 6 3F 3F 00 01 00 FF
   3.1355 1  CB              Rx   d 8 54 00 80 00 05 65 10 00
   3.1356 1  CE              Rx   d 2 80 00
   3.1358 1  154             Rx   d 6 3F 3F 00 01 00 FF
   3.1350 1  047             Tx   d 7 84 00 00 00 00 5a 5f 
   3.1352 1  048             Tx   d 7 84 00 00 00 00 55 e4 
   3.1354 1  041             Tx   d 6 84 fa 00 03 06 aa 
   3.1355 1  042             Tx   d 6 84 fa 00 03 06 a5 
   3.1444 1  CA              Rx   d 8 54 00 80 00 05 66 30 00
   3.1446 1  CD              Rx   d 2 7E F4
   3.1448 1  153             Rx   d 6 3F 3F 00 01 00 FF
   3.1454 1  CB              Rx   d 8 54 00 80 00 05 66 30 00
   3.1456 1  CE              Rx   d 2 80 00
   3.1455 1  047             Tx   d 7 c4 00 00 00 00 5a 0f 
   3.1458 1  154             Rx   d 6 3F 3F 00 01 00 FF
   3.1462 1  048             Tx   d 7 c4 00 00 00 00 55 b4 
   3.1464 1  041             Tx   d 6 c4 fa 00 03 06 aa 
   3.1465 1  042             Tx   d 6 c4 fa 00 03 06 a5 
   3.1545 1  CA              Rx   d 8 54 00 80 00 05 66 50 00
   3.1546 1  CD              Rx   d 2 7E F4
   3.1548 1  153             Rx   d 6 3F 3F 00 01 00 FF
   3.1554 1  CB              Rx   d 8 54 00 80 00 05 65 50 00
   3.1556 1  CE              Rx   d 2 80 00
   3.1558 1  154             Rx   d 6 3F 3F 00 01 00 FF
   3.1553 1  047             Tx   d 7 04 00 00 00 00 5a ff 
   3.1555 1  048             Tx   d 7 04 00 00 00 00 55 44 
   3.1557 1  041             Tx   d 6 04 fa 00 03 06 aa 
   3.1558 1  042             Tx   d 6 04 fa 00 03 06 a5 
   3.1644 1  CA              Rx   d 8 54 00 80 00 05 66 70 00
   3.1646 1  CD              Rx   d 2 7E F4
   3.1648 1  153             Rx   d 6 3F 3F 00 01 00 FF
   3.1649 1  386             Rx   d 5 5B 5B 5A 43 33
   3.1655 1  CB              Rx   d 8 54 00 80 00 05 65 70 00
   3.1656 1  CE              Rx   d 2 80 00
   3.1658 1  154             Rx   d 6 3F 3F 00 01 00 FF
   3.1660 1  387             Rx   d 5 5B 5B 5A 43 33
   3.1656 1  047             Tx   d 7 44 00 00 00 00 5a af 
   3.1658 1  048             Tx   d 7 44 00 00 00 00 55 14 
   3.1660 1  041             Tx   d 6 44 fa 00 03 06 aa 
   3.1661 1  042             Tx   d 6 44 fa 00 03 06 a5 
   3.1744 1  CA              Rx   d 8 54 00 80 00 05 66 10 00
   3.1745 1  CD              Rx   d 2 7E F4
   3.1748 1  153             Rx   d 6 3F 3F 00 01 00 FF
   3.1754 1  CB              Rx   d 8 54 00 80 00 05 66 10 00
   3.1756 1  CE              Rx   d 2 80 00
   3.1758 1  154             Rx   d 6 3F 3F 00 01 00 FF
   3.1752 1  047             Tx   d 7 84 00 00 00 00 5a 5f 
   3.1754 1  048             Tx   d 7 84 00 00 00 00 55 e4 
   3.1756 1  041             Tx   d 6 84 fa 00 03 06 aa 
   3.1757 1  042             Tx   d 6 84 fa 00 03 06 a5 
   3.1844 1  CA              Rx   d 8 54 00 80 00 05 66 30 00
   3.1846 1  CD              Rx   d 2 7E F4
   3.1848 1  153             Rx   d 6 3F 3F 00 01 00 FF
   3.1854 1  CB              Rx   d 8 54 00 80 00 05 66 30 00
   3.1856 1  CE              Rx   d 2 80 00
   3.1858 1  154             Rx   d 6 3F 3F 00 01 00 FF
   3.1846 1  047             Tx   d 7 c4 00 00 00 00 5a 0f 
   3.1848 1  048             Tx   d 7 c4 00 00 00 00 55 b4 
   3.1849 1  041             Tx   d 6 c4 fa 00 03 06 aa 
   3.1850 1  042             Tx   d 6 c4 fa 00 03 06 a5 
   3.1944 1  CA              Rx   d 8 54 00 80 00 05 66 50 00
   3.1946 1  CD              Rx   d 2 7E F4
   3.1948 1  153             Rx   d 6 3F 3F 00 01 00 FF
   3.1955 1  CB              Rx   d 8 54 00 80 00 05 66 50 00
   3.1956 1  CE              Rx   d 2 80 00
   3.1958 1  154             Rx   d 6 3F 3F 00 01 00 FF
   3.1947 1  047             Tx   d 7 04 00 00 00 00 5a ff 
   3.1949 1  048             Tx   d 7 04 00 00 00 00 55 44 
   3.1950 1  041             Tx   d 6 04 fa 00 03 06 aa 
   3.1951 1  042             Tx   d 6 04 fa 00 03 06 a5 
   3.2044 1  CA              Rx   d 8 54 00 80 00 05 66 70 00
   3.2045 1  CD              Rx   d 2 7E F4
   3.2048 1  153             Rx   d 6 3F 3F 00 01 00 FF
   3.2054 1  CB              Rx   d 8 54 00 80 00 05 66 70 00
   3.2056 1  CE              Rx   d 2 80 00
   3.2045 1  047             Tx   d 7 44 00 00 00 00 5a af 
   3.2058 1  154             Rx   d 6 3F 3F 00 01 00 FF
   3.2054 1  048             Tx   d 7 44 00 00 00 00 55 14 
   3.2056 1  041             Tx   d 6 44 fa 00 03 06 aa 
   3.2058 1  042             Tx   d 6 44 fa 00 03 06 a5 
   3.2144 1  CA              Rx   d 8 54 00 80 00 05 66 10 00
   3.2146 1  CD              Rx   d 2 7E F4
   3.2148 1  153             Rx   d 6 3F 3F 00 01 00 FF
   3.2155 1  CB              Rx   d 8 54 00 80 00 05 66 10 00
   3.2156 1  CE              Rx   d 2 80 00
   3.2158 1  154             Rx   d 6 3F 3F 00 01 00 FF
   3.2149 1  047             Tx   d 7 84 00 00 00 00 5a 5f 
   3.2151 1  048             Tx   d 7 84 00 00 00 00 55 e4 
   3.2153 1  041             Tx   d 6 84 fa 00 03 06 aa 
   3.2156 1  042             Tx   d 6 84 fa 00 03 06 a5 
   3.2244 1  CA              Rx   d 8 54 00 80 00 05 66 30 00
   3.2246 1  CD              Rx   d 2 7E F4
   3.2248 1  153             Rx   d 6 3F 3F 00 01 00 FF
   3.2254 1  CB              Rx   d 8 54 00 80 00 05 66 30 00
   3.2256 1  CE              Rx   d 2 80 00
   3.2258 1  154             Rx   d 6 3F 3F 00 01 00 FF
   3.2249 1  047             Tx   d 7 c4 00 00 00 00 5a 0f 
   3.2251 1  048             Tx   d 7 c4 00 00 00 00 55 b4 
   3.2253 1  041             Tx   d 6 c4 fa 00 03 06 aa 
   3.2254 1  042             Tx   d 6 c4 fa 00 03 06 a5 
   3.2344 1  CA              Rx   d 8 54 00 80 00 05 66 50 00
   3.2346 1  CD              Rx   d 2 7E F4
   3.2348 1  153             Rx   d 6 3F 3F 00 01 00 FF
   3.2354 1  CB              Rx   d 8 54 00 80 00 05 66 50 00
   3.2356 1  CE              Rx   d 2 80 00
   3.2358 1  154             Rx   d 6 3F 3F 00 01 00 FF
   3.2349 1  047             Tx   d 7 04 00 00 00 00 5a ff 
   3.2351 1  048             Tx   d 7 04 00 00 00 00 55 44 
   3.2352 1  041             Tx   d 6 04 fa 00 03 06 aa 
   3.2353 1  042             Tx   d 6 04 fa 00 03 06 a5 
   3.2444 1  CA              Rx   d 8 54 00 80 00 05 66 70 00
   3.2446 1  CD              Rx   d 2 7E F4
   3.2448 1  153             Rx   d 6 3F 3F 00 01 00 FF
   3.2455 1  CB              Rx   d 8 54 00 80 00 05 66 70 00
   3.2456 1  CE              Rx   d 2 80 00
   3.2458 1  154             Rx   d 6 3F 3F 00 01 00 FF
   3.2453 1  047             Tx   d 7 44 00 00 00 00 5a af 
   3.2455 1  048             Tx   d 7 44 00 00 00 00 55 14 
   3.2457 1  041             Tx   d 6 44 fa 00 03 06 aa 
   3.2458 1  042             Tx   d 6 44 fa 00 03 06 a5 
   3.2544 1  CA              Rx   d 8 54 00 80 00 05 66 10 00
   3.2545 1  CD              Rx   d 2 7E F4
   3.2548 1  153             Rx   d 6 3F 3F 00 01 00 FF
   3.2554 1  CB              Rx   d 8 54 00 80 00 05 66 10 00
   3.2556 1  CE              Rx   d 2 80 00
   3.2558 1  154             Rx   d 6 3F 3F 00 01 00 FF
   3.2551 1  047             Tx   d 7 84 00 00 00 00 5a 5f 
   3.2553 1  048             Tx   d 7 84 00 00 00 00 55 e4 
   3.2555 1  041             Tx   d 6 84 fa 00 03 06 aa 
   3.2556 1  042             Tx   d 6 84 fa 00 03 06 a5 
   3.2644 1  CA              Rx   d 8 54 00 80 00 05 66 30 00
   3.2646 1  CD              Rx   d 2 7E F4
   3.2648 1  153             Rx   d 6 3F 3F 00 01 00 FF
   3.2650 1  386             Rx   d 5 63 62 62 44 30
   3.2652 1  684             Rx   d 8 00 00 00 00 00 00 00 00
   3.2655 1  CB              Rx   d 8 54 00 80 00 05 66 30 00
   3.2656 1  CE              Rx   d 2 80 00
   3.2658 1  154             Rx   d 6 3F 3F 00 01 00 FF
   3.2660 1  387             Rx   d 5 63 62 62 44 30
   3.2662 1  685             Rx   d 8 00 00 00 00 00 00 00 00
   3.2649 1  047             Tx   d 7 c4 00 00 00 00 5a 0f 
   3.2652 1  048             Tx   d 7 c4 00 00 00 00 55 b4 
   3.2653 1  041             Tx   d 6 c4 fa 00 03 06 aa 
   3.2655 1  042             Tx   d 6 c4 fa 00 03 06 a5 
   3.2744 1  CA              Rx   d 8 54 00 80 00 05 66 50 00
   3.2746 1  CD              Rx   d 2 7E F4
   3.2748 1  153             Rx   d 6 3F 3F 00 01 00 FF
   3.2755 1  CB              Rx   d 8 54 00 80 00 05 65 50 00
   3.2756 1  CE              Rx   d 2 80 00
   3.2758 1  154             Rx   d 6 3F 3F 00 01 00 FF
   3.2749 1  047             Tx   d 7 04 00 00 00 00 5a ff 
   3.2751 1  048             Tx   d 7 04 00 00 00 00 55 44 
   3.2752 1  041             Tx   d 6 04 fa 00 03 06 aa 
   3.2754 1  042             Tx   d 6 04 fa 00 03 06 a5 
   3.2844 1  CA              Rx   d 8 54 00 80 00 05 66 70 00
   3.2845 1  CD              Rx   d 2 7E F4
   3.2848 1  153             Rx   d 6 3F 3F 00 01 00 FF
   3.2854 1  CB              Rx   d 8 54 00 80 00 05 65 70 00
   3.2856 1  CE              Rx   d 2 80 00
   3.2858 1  154             Rx   d 6 3F 3F 00 01 00 FF
   3.2850 1  047             Tx   d 7 44 00 00 00 00 5a af 
   3.2852 1  048             Tx   d 7 44 00 00 00 00 55 14 
   3.2854 1  041             Tx   d 6 44 fa 00 03 06 aa 
   3.2855 1  042             Tx   d 6 44 fa 00 03 06 a5 
   3.2944 1  CA              Rx   d 8 54 00 80 00 05 66 10 00
   3.2946 1  CD              Rx   d 2 7E F4
   3.2948 1  153             Rx   d 6 3F 3F 00 01 00 FF
   3.2955 1  CB              Rx   d 8 54 00 80 00 05 65 10 00
   3.2956 1  CE              Rx   d 2 80 00
   3.2958 1  154             Rx   d 6 3F 3F 00 01 00 FF
   3.2948 1  047             Tx   d 7 84 00 00 00 00 5a 5f 
   3.2952 1  048             Tx   d 7 84 00 00 00 00 55 e4 
   3.2954 1  041             Tx   d 6 84 fa 00 03 06 aa 
   3.2955 1  042             Tx   d 6 84 fa 00 03 06 a5 
   3.3044 1  CA              Rx   d 8 54 00 80 00 05 66 30 00
   3.3046 1  CD              Rx   d 2 7E F4
   3.3048 1  153             Rx   d 6 3F 3F 00 01 00 FF
   3.3054 1  CB              Rx   d 8 54 00 80 00 05 65 30 00
   3.3056 1  CE              Rx   d 2 80 00
   3.3058 1  154             Rx   d 6 3F 3F 00 01 00 FF
   3.3045 1  047             Tx   d 7 c4 00 00 00 00 5a 0f 
   3.3047 1  048             Tx   d 7 c4 00 00 00 00 55 b4 
   3.3048 1  041             Tx   d 6 c4 fa 00 03 06 aa 
   3.3050 1  042             Tx   d 6 c4 fa 00 03 06 a5 
   3.3144 1  CA              Rx   d 8 54 00 80 00 05 66 50 00
   3.3146 1  CD              Rx   d 2 7E F4
   3.3148 1  153             Rx   d 6 3F 3F 00 01 00 FF
   3.3154 1  CB              Rx   d 8 54 00 80 00 05 65 50 00
   3.3146 1  047             Tx   d 7 04 00 00 00 00 5a ff 
   3.3156 1  CE              Rx   d 2 80 00
   3.3158 1  154             Rx   d 6 3F 3F 00 01 00 FF
   3.3162 1  048             Tx   d 7 04 00 00 00 00 55 44 
   3.3166 1  041             Tx   d 6 04 fa 00 03 06 aa 
   3.3168 1  042             Tx   d 6 04 fa 00 03 06 a5 
   3.3244 1  CA              Rx   d 8 54 00 80 00 05 66 70 00
   3.3246 1  CD              Rx   d 2 7E F4
   3.3248 1  153             Rx   d 6 3F 3F 00 01 00 FF
   3.3255 1  CB              Rx   d 8 54 00 80 00 05 65 70 00
   3.3256 1  CE              Rx   d 2 80 00
   3.3258 1  154             Rx   d 6 3F 3F 00 01 00 FF
   3.3257 1  047             Tx   d 7 44 00 00 00 00 5a af 
   3.3259 1  048             Tx   d 7 44 00 00 00 00 55 14 
   3.3260 1  041             Tx   d 6 44 fa 00 03 06 aa 
   3.3262 1  042             Tx   d 6 44 fa 00 03 06 a5 
   3.3344 1  CA              Rx   d 8 54 00 80 00 05 66 10 00
   3.3345 1  CD              Rx   d 2 7E F4
   3.3348 1  153             Rx   d 6 3F 3F 00 01 00 FF
   3.3354 1  CB              Rx   d 8 54 00 80 00 05 65 10 00
   3.3356 1  CE              Rx   d 2 80 00
   3.3358 1  154             Rx   d 6 3F 3F 00 01 00 FF
   3.3350 1  047             Tx   d 7 84 00 00 00 00 5a 5f 
   3.3352 1  048             Tx   d 7 84 00 00 00 00 55 e4 
   3.3354 1  041             Tx   d 6 84 fa 00 03 06 aa 
   3.3355 1  042             Tx   d 6 84 fa 00 03 06 a5 
   3.3444 1  CA              Rx   d 8 54 00 80 00 05 67 30 00
   3.3446 1  CD              Rx   d 2 7E F4
   3.3448 1  153             Rx   d 6 3F 3F 00 01 00 FF
   3.3454 1  CB              Rx   d 8 54 00 80 00 05 65 30 00
   3.3456 1  CE              Rx   d 2 80 00
   3.3458 1  154             Rx   d 6 3F 3F 00 01 00 FF
   3.3452 1  047             Tx   d 7 c4 00 00 00 00 5a 0f 
   3.3454 1  048             Tx   d 7 c4 00 00 00 00 55 b4 
   3.3456 1  041             Tx   d 6 c4 fa 00 03 06 aa 
   3.3457 1  042             Tx   d 6 c4 fa 00 03 06 a5 
   3.3544 1  CA              Rx   d 8 54 00 80 00 05 66 50 00
   3.3546 1  CD              Rx   d 2 7E F4
   3.3548 1  153             Rx   d 6 3F 3F 00 01 00 FF
   3.3555 1  CB              Rx   d 8 54 00 80 00 05 65 50 00
   3.3556 1  CE              Rx   d 2 80 00
   3.3558 1  154             Rx   d 6 3F 3F 00 01 00 FF
   3.3552 1  047             Tx   d 7 04 00 00 00 00 5a ff 
   3.3554 1  048             Tx   d 7 04 00 00 00 00 55 44 
   3.3556 1  041             Tx   d 6 04 fa 00 03 06 aa 
   3.3557 1  042             Tx   d 6 04 fa 00 03 06 a5 
   3.3644 1  CA              Rx   d 8 54 00 80 00 05 66 70 00
   3.3645 1  CD              Rx   d 2 7E F4
   3.3648 1  153             Rx   d 6 3F 3F 00 01 00 FF
   3.3649 1  386             Rx   d 5 6B 6B 6A 45 31
   3.3654 1  CB              Rx   d 8 54 00 80 00 05 65 70 00
   3.3656 1  CE              Rx   d 2 80 00
   3.3658 1  154             Rx   d 6 3F 3F 00 01 00 FF
   3.3660 1  387             Rx   d 5 6B 6B 6A 45 31
   3.3650 1  047             Tx   d 7 44 00 00 00 00 5a af 
   3.3653 1  048             Tx   d 7 44 00 00 00 00 55 14 
   3.3654 1  041             Tx   d 6 44 fa 00 03 06 aa 
   3.3655 1  042             Tx   d 6 44 fa 00 03 06 a5 
   3.3744 1  CA              Rx   d 8 54 00 80 00 05 66 10 00
   3.3746 1  CD              Rx   d 2 7E F4
   3.3748 1  153             Rx   d 6 3F 3F 00 01 00 FF
   3.3755 1  CB              Rx   d 8 54 00 80 00 05 65 10 00
   3.3756 1  CE              Rx   d 2 80 00
   3.3758 1  154             Rx   d 6 3F 3F 00 01 00 FF
   3.3749 1  047             Tx   d 7 84 00 00 00 00 5a 5f 
   3.3751 1  048             Tx   d 7 84 00 00 00 00 55 e4 
   3.3752 1  041             Tx   d 6 84 fa 00 03 06 aa 
   3.3754 1  042             Tx   d 6 84 fa 00 03 06 a5 
   3.3844 1  CA              Rx   d 8 54 00 80 00 05 66 30 00
   3.3846 1  CD              Rx   d 2 7E F4
   3.3848 1  153             Rx   d 6 3F 3F 00 01 00 FF
   3.3854 1  CB              Rx   d 8 54 00 80 00 05 65 30 00
   3.3856 1  CE              Rx   d 2 80 00
   3.3858 1  154             Rx   d 6 3F 3F 00 01 00 FF
   3.3846 1  047             Tx   d 7 c4 00 00 00 00 5a 0f 
   3.3847 1  048             Tx   d 7 c4 00 00 00 00 55 b4 
   3.3849 1  041             Tx   d 6 c4 fa 00 03 06 aa 
   3.3850 1  042             Tx   d 6 c4 fa 00 03 06 a5 
   3.3944 1  CA              Rx   d 8 54 00 80 00 05 66 50 00
   3.3946 1  CD              Rx   d 2 7E F4
   3.3948 1  153             Rx   d 6 3F 3F 00 01 00 FF
   3.3954 1  CB              Rx   d 8 54 00 80 00 05 66 50 00
   3.3956 1  CE              Rx   d 2 80 00
   3.3944 1  047             Tx   d 7 04 00 00 00 00 5a ff 
   3.3958 1  154             Rx   d 6 3F 3F 00 01 00 FF
   3.3952 1  048             Tx   d 7 04 00 00 00 00 55 44 
   3.3953 1  041             Tx   d 6 04 fa 00 03 06 aa 
   3.3955 1  042             Tx   d 6 04 fa 00 03 06 a5 
   3.4044 1  CA              Rx   d 8 54 00 80 00 05 66 70 00
   3.4046 1  CD              Rx   d 2 7E F4
   3.4048 1  153             Rx   d 6 3F 3F 00 01 00 FF
   3.4055 1  CB              Rx   d 8 54 00 80 00 05 66 70 00
   3.4056 1  CE              Rx   d 2 80 00
   3.4058 1  154             Rx   d 6 3F 3F 00 01 00 FF
   3.4052 1  047             Tx   d 7 44 00 00 00 00 5a af 
   3.4054 1  048             Tx   d 7 44 00 00 00 00 55 14 
   3.4055 1  041             Tx   d 6 44 fa 00 03 06 aa 
   3.4057 1  042             Tx   d 6 44 fa 00 03 06 a5 
   3.4144 1  CA              Rx   d 8 54 00 80 00 05 66 10 00
   3.4145 1  CD              Rx   d 2 7E F4
   3.4148 1  153             Rx   d 6 3F 3F 00 01 00 FF
   3.4154 1  CB              Rx   d 8 54 00 80 00 05 65 10 00
   3.4156 1  CE              Rx   d 2 80 00
   3.4158 1  154             Rx   d 6 3F 3F 00 01 00 FF
   3.4153 1  047             Tx   d 7 84 00 00 00 00 5a 5f 
   3.4155 1  048             Tx   d 7 84 00 00 00 00 55 e4 
   3.4157 1  041             Tx   d 6 84 fa 00 03 06 aa 
   3.4158 1  042             Tx   d 6 84 fa 00 03 06 a5 
   3.4244 1  CA              Rx   d 8 54 00 80 00 05 66 30 00
   3.4246 1  CD              Rx   d 2 7E F4
   3.4248 1  153             Rx   d 6 3F 3F 00 01 00 FF
   3.4254 1  CB              Rx   d 8 54 00 80 00 05 65 30 00
   3.4256 1  CE              Rx   d 2 80 00
   3.4258 1  154             Rx   d 6 3F 3F 00 01 00 FF
   3.4248 1  047             Tx   d 7 c4 00 00 00 00 5a 0f 
   3.4250 1  048             Tx   d 7 c4 00 00 00 00 55 b4 
   3.4252 1  041             Tx   d 6 c4 fa 00 03 06 aa 
   3.4253 1  042             Tx   d 6 c4 fa 00 03 06 a5 
   3.4344 1  CA              Rx   d 8 54 00 80 00 05 67 50 00
   3.4346 1  CD              Rx   d 2 7E F4
   3.4348 1  153             Rx   d 6 3F 3F 00 01 00 FF
   3.4355 1  CB              Rx   d 8 54 00 80 00 05 65 50 00
   3.4356 1  CE              Rx   d 2 80 00
   3.4358 1  154             Rx   d 6 3F 3F 00 01 00 FF
   3.4347 1  047             Tx   d 7 04 00 00 00 00 5a ff 
   3.4348 1  048             Tx   d 7 04 00 00 00 00 55 44 
   3.4350 1  041             Tx   d 6 04 fa 00 03 06 aa 
   3.4351 1  042             Tx   d 6 04 fa 00 03 06 a5 
   3.4444 1  CA              Rx   d 8 54 00 80 00 05 67 70 00
   3.4445 1  CD              Rx   d 2 7E F4
   3.4448 1  153             Rx   d 6 3F 3F 00 01 00 FF
   3.4454 1  CB              Rx   d 8 54 00 80 00 05 65 70 00
   3.4456 1  CE              Rx   d 2 80 00
   3.4458 1  154             Rx   d 6 3F 3F 00 01 00 FF
   3.4451 1  047             Tx   d 7 44 00 00 00 00 5a af 
   3.4454 1  048             Tx   d 7 44 00 00 00 00 55 14 
   3.4455 1  041             Tx   d 6 44 fa 00 03 06 aa 
   3.4457 1  042             Tx   d 6 44 fa 00 03 06 a5 
   3.4544 1  CA              Rx   d 8 54 00 80 00 05 67 10 00
   3.4546 1  CD              Rx   d 2 7E F4
   3.4548 1  153             Rx   d 6 3F 3F 00 01 00 FF
   3.4554 1  CB              Rx   d 8 54 00 80 00 05 65 10 00
   3.4556 1  CE              Rx   d 2 80 00
   3.4558 1  154             Rx   d 6 3F 3F 00 01 00 FF
   3.4545 1  047             Tx   d 7 84 00 00 00 00 5a 5f 
   3.4547 1  048             Tx   d 7 84 00 00 00 00 55 e4 
   3.4548 1  041             Tx   d 6 84 fa 00 03 06 aa 
   3.4550 1  042             Tx   d 6 84 fa 00 03 06 a5 
   3.4644 1  CA              Rx   d 8 54 00 80 00 05 67 30 00
   3.4646 1  CD              Rx   d 2 7E F4
   3.4648 1  153             Rx   d 6 3F 3F 00 01 00 FF
   3.4649 1  386             Rx   d 5 73 73 70 46 31
   3.4654 1  CB              Rx   d 8 54 00 80 00 05 65 30 00
   3.4656 1  CE              Rx   d 2 80 00
   3.4658 1  154             Rx   d 6 3F 3F 00 01 00 FF
   3.4660 1  387             Rx   d 5 73 73 70 46 31
   3.4652 1  047             Tx   d 7 c4 00 00 00 00 5a 0f 
   3.4656 1  048             Tx   d 7 c4 00 00 00 00 55 b4 
   3.4658 1  041             Tx   d 6 c4 fa 00 03 06 aa 
   3.4659 1  042             Tx   d 6 c4 fa 00 03 06 a5 
   3.4744 1  CA              Rx   d 8 54 00 80 00 05 67 50 00
   3.4746 1  CD              Rx   d 2 7E F4
   3.4748 1  153             Rx   d 6 3F 3F 00 01 00 FF
   3.4754 1  CB              Rx   d 8 54 00 80 00 05 65 50 00
   3.4756 1  CE              Rx   d 2 80 00
   3.4758 1  154             Rx   d 6 3F 3F 00 01 00 FF
   3.4751 1  047             Tx   d 7 04 00 00 00 00 5a ff 
   3.4753 1  048             Tx   d 7 04 00 00 00 00 55 44 
   3.4755 1  041             Tx   d 6 04 fa 00 03 06 aa 
   3.4758 1  042             Tx   d 6 04 fa 00 03 06 a5 
   3.4844 1  CA              Rx   d 8 54 00 80 00 05 67 70 00
   3.4846 1  CD              Rx   d 2 7E F4
   3.4848 1  153             Rx   d 6 3F 3F 00 01 00 FF
   3.4855 1  CB              Rx   d 8 54 00 80 00 05 65 70 00
   3.4856 1  CE              Rx   d 2 80 00
   3.4858 1  154             Rx   d 6 3F 3F 00 01 00 FF
   3.4848 1  047             Tx   d 7 44 00 00 00 00 5a af 
   3.4850 1  048             Tx   d 7 44 00 00 00 00 55 14 
   3.4851 1  041             Tx   d 6 44 fa 00 03 06 aa 
   3.4853 1  042             Tx   d 6 44 fa 00 03 06 a5 
   3.4944 1  CA              Rx   d 8 54 00 80 00 05 67 10 00
   3.4945 1  CD              Rx   d 2 7E F4
   3.4948 1  153             Rx   d 6 3F 3F 00 01 00 FF
   3.4954 1  CB              Rx   d 8 54 00 80 00 05 65 10 00
   3.4956 1  CE              Rx   d 2 80 00
   3.4958 1  154             Rx   d 6 3F 3F 00 01 00 FF
   3.4950 1  047             Tx   d 7 84 00 00 00 00 5a 5f 
   3.4953 1  048             Tx   d 7 84 00 00 00 00 55 e4 
   3.4955 1  041             Tx   d 6 84 fa 00 03 06 aa 
   3.4956 1  042             Tx   d 6 84 fa 00 03 06 a5 
   3.5044 1  CA              Rx   d 8 54 00 80 00 05 67 30 00
   3.5046 1  CD              Rx   d 2 7E F4
   3.5048 1  153             Rx   d 6 3F 3F 00 01 00 FF
   3.5054 1  CB              Rx   d 8 54 00 80 00 05 65 30 00
   3.5056 1  CE              Rx   d 2 80 00
   3.5058 1  154             Rx   d 6 3F 3F 00 01 00 FF
   3.5046 1  047             Tx   d 7 c4 00 00 00 00 5a 0f 
   3.5048 1  048             Tx   d 7 c4 00 00 00 00 55 b4 
   3.5050 1  041             Tx   d 6 c4 fa 00 03 06 aa 
   3.5051 1  042             Tx   d 6 c4 fa 00 03 06 a5 
   3.5144 1  CA              Rx   d 8 54 00 80 00 05 67 50 00
   3.5146 1  CD              Rx   d 2 7E F4
   3.5148 1  153             Rx   d 6 3F 3F 00 01 00 FF
   3.5155 1  CB              Rx   d 8 54 00 80 00 05 65 50 00
   3.5156 1  CE              Rx   d 2 80 00
   3.5158 1  154             Rx   d 6 3F 3F 00 01 00 FF
   3.5149 1  047             Tx   d 7 04 00 00 00 00 5a ff 
   3.5153 1  048             Tx   d 7 04 00 00 00 00 55 44 
   3.5155 1  041             Tx   d 6 04 fa 00 03 06 aa 
   3.5156 1  042             Tx   d 6 04 fa 00 03 06 a5 
   3.5244 1  CA              Rx   d 8 54 00 80 00 05 67 70 00
   3.5245 1  CD              Rx   d 2 7E F4
   3.5248 1  153             Rx   d 6 3F 3F 00 01 00 FF
   3.5254 1  CB              Rx   d 8 54 00 80 00 05 65 70 00
   3.5256 1  CE              Rx   d 2 80 00
   3.5258 1  154             Rx   d 6 3F 3F 00 01 00 FF
   3.5250 1  047             Tx   d 7 44 00 00 00 00 5a af 
   3.5252 1  048             Tx   d 7 44 00 00 00 00 55 14 
   3.5254 1  041             Tx   d 6 44 fa 00 03 06 aa 
   3.5256 1  042             Tx   d 6 44 fa 00 03 06 a5 
   3.5344 1  CA              Rx   d 8 54 00 80 00 05 67 10 00
   3.5346 1  CD              Rx   d 2 7E F4
   3.5348 1  153             Rx   d 6 3F 3F 00 01 00 FF
   3.5354 1  CB              Rx   d 8 54 00 80 00 05 65 10 00
   3.5356 1  CE              Rx   d 2 80 00
   3.5358 1  154             Rx   d 6 3F 3F 00 01 00 FF
   3.5365 1  047             Tx   d 7 84 00 00 00 00 5a 5f 
   3.5369 1  048             Tx   d 7 84 00 00 00 00 55 e4 
   3.5372 1  041             Tx   d 6 84 fa 00 03 06 aa 
   3.5376 1  042             Tx   d 6 84 fa 00 03 06 a5 
   3.5444 1  CA              Rx   d 8 54 00 80 00 05 67 30 00
   3.5446 1  CD              Rx   d 2 7E F4
   3.5448 1  153             Rx   d 6 3F 3F 00 01 00 FF
   3.5454 1  CB              Rx   d 8 54 00 80 00 05 65 30 00
   3.5456 1  CE              Rx   d 2 80 00
   3.5458 1  154             Rx   d 6 3F 3F 00 01 00 FF
   3.5496 1  047             Tx   d 7 c4 00 00 00 00 5a 0f 
   3.5500 1  048             Tx   d 7 c4 00 00 00 00 55 b4 
   3.5503 1  041             Tx   d 6 c4 fa 00 03 06 aa 
   3.5544 1  CA              Rx   d 8 54 00 80 00 05 66 50 00
   3.5545 1  CD              Rx   d 2 7E F4
   3.5547 1  153             Rx   d 6 3F 3F 00 01 00 FF
   3.5554 1  CB              Rx   d 8 54 00 80 00 05 65 50 00
   3.5556 1  CE              Rx   d 2 80 00
   3.5558 1  154             Rx   d 6 3F 3F 00 01 00 FF
   3.5540 1  042             Tx   d 6 c4 fa 00 03 06 a5 
   3.5644 1  CA              Rx   d 8 54 00 80 00 05 66 70 00
   3.5645 1  CD              Rx   d 2 7E F4
   3.5647 1  153             Rx   d 6 3F 3F 00 01 00 FF
   3.5649 1  386             Rx   d 5 7B 7B 7B 47 36
   3.5654 1  CB              Rx   d 8 54 00 80 00 05 65 70 00
   3.5656 1  CE              Rx   d 2 80 00
   3.5658 1  154             Rx   d 6 3F 3F 00 01 00 FF
   3.5659 1  387             Rx   d 5 7B 7B 7B 47 36
   3.5702 1  047             Tx   d 7 04 00 00 00 00 5a ff 
   3.5744 1  CA              Rx   d 8 54 00 80 00 05 66 10 00
   3.5745 1  CD              Rx   d 2 7E F4
   3.5747 1  153             Rx   d 6 3F 3F 00 01 00 FF
   3.5754 1  CB              Rx   d 8 54 00 80 00 05 65 10 00
   3.5756 1  CE              Rx   d 2 80 00
   3.5758 1  154             Rx   d 6 3F 3F 00 01 00 FF
   3.5741 1  048             Tx   d 7 04 00 00 00 00 55 44 
   3.5754 1  041             Tx   d 6 04 fa 00 03 06 aa 
   3.5758 1  042             Tx   d 6 04 fa 00 03 06 a5 
   3.5844 1  CA              Rx   d 8 54 00 80 00 05 67 30 00
   3.5845 1  CD              Rx   d 2 7E F4
   3.5847 1  153             Rx   d 6 3F 3F 00 01 00 FF
   3.5854 1  CB              Rx   d 8 54 00 80 00 05 65 30 00
   3.5856 1  CE              Rx   d 2 80 00
   3.5858 1  154             Rx   d 6 3F 3F 00 01 00 FF
   3.5894 1  047             Tx   d 7 44 00 00 00 00 5a af 
   3.5898 1  048             Tx   d 7 44 00 00 00 00 55 14 
   3.5901 1  041             Tx   d 6 44 fa 00 03 06 aa 
   3.5904 1  042             Tx   d 6 44 fa 00 03 06 a5 
   3.5944 1  CA              Rx   d 8 54 00 80 00 05 67 50 00
   3.5945 1  CD              Rx   d 2 7E F4
   3.5947 1  153             Rx   d 6 3F 3F 00 01 00 FF
   3.5954 1  CB              Rx   d 8 54 00 80 00 05 65 50 00
   3.5958 1  CE              Rx   d 2 80 00
   3.5962 1  154             Rx   d 6 3F 3F 00 01 00 FF
   3.6019 1  047             Tx   d 7 84 00 00 00 00 5a 5f 
   3.6044 1  CA              Rx   d 8 54 00 80 00 05 67 70 00
   3.6045 1  CD              Rx   d 2 7E F4
   3.6047 1  153             Rx   d 6 3F 3F 00 01 00 FF
   3.6054 1  CB              Rx   d 8 54 00 80 00 05 65 70 00
   3.6056 1  CE              Rx   d 2 80 00
   3.6058 1  154             Rx   d 6 3F 3F 00 01 00 FF
   3.6055 1  048             Tx   d 7 84 00 00 00 00 55 e4 
   3.6068 1  041             Tx   d 6 84 fa 00 03 06 aa 
   3.6072 1  042             Tx   d 6 84 fa 00 03 06 a5 
   3.6144 1  CA              Rx   d 8 54 00 80 00 05 67 10 00
   3.6145 1  CD              Rx   d 2 7E F4
   3.6147 1  153             Rx   d 6 3F 3F 00 01 00 FF
   3.6154 1  CB              Rx   d 8 54 00 80 00 05 65 10 00
   3.6156 1  CE              Rx   d 2 80 00
   3.6158 1  154             Rx   d 6 3F 3F 00 01 00 FF
   3.6199 1  047             Tx   d 7 c4 00 00 00 00 5a 0f 
   3.6203 1  048             Tx   d 7 c4 00 00 00 00 55 b4 
   3.6244 1  CA              Rx   d 8 54 00 80 00 05 67 30 00
   3.6245 1  CD              Rx   d 2 7E F4
   3.6247 1  153             Rx   d 6 3F 3F 00 01 00 FF
   3.6254 1  CB              Rx   d 8 54 00 80 00 05 65 30 00
   3.6258 1  CE              Rx   d 2 80 00
   3.6260 1  154             Rx   d 6 3F 3F 00 01 00 FF
   3.6250 1  041             Tx   d 6 c4 fa 00 03 06 aa 
   3.6254 1  042             Tx   d 6 c4 fa 00 03 06 a5 
   3.6344 1  CA              Rx   d 8 54 00 80 00 05 67 50 00
   3.6345 1  CD              Rx   d 2 7E F4
   3.6347 1  153             Rx   d 6 3F 3F 00 01 00 FF
   3.6354 1  CB              Rx   d 8 54 00 80 00 05 65 50 00
   3.6356 1  CE              Rx   d 2 80 00
   3.6358 1  154             Rx   d 6 3F 3F 00 01 00 FF
   3.6393 1  047             Tx   d 7 04 00 00 00 00 5a ff 
   3.6398 1  048             Tx   d 7 04 00 00 00 00 55 44 
   3.6401 1  041             Tx   d 6 04 fa 00 03 06 aa 
   3.6404 1  042             Tx   d 6 04 fa 00 03 06 a5 
   3.6444 1  CA              Rx   d 8 54 00 80 00 05 67 70 00
   3.6445 1  CD              Rx   d 2 7E F4
   3.6447 1  153             Rx   d 6 3F 3F 00 01 00 FF
   3.6454 1  CB              Rx   d 8 54 00 80 00 05 65 70 00
   3.6458 1  CE              Rx   d 2 80 00
   3.6462 1  154             Rx   d 6 3F 3F 00 01 00 FF
   3.6544 1  CA              Rx   d 8 54 00 80 00 05 67 10 00
   3.6531 1  047             Tx   d 7 44 00 00 00 00 5a af 
   3.6545 1  CD              Rx   d 2 7E F4
   3.6547 1  153             Rx   d 6 3F 3F 00 01 00 FF
   3.6554 1  CB              Rx   d 8 54 00 80 00 05 65 10 00
   3.6556 1  CE              Rx   d 2 80 00
   3.6558 1  154             Rx   d 6 3F 3F 00 01 00 FF
   3.6561 1  048             Tx   d 7 44 00 00 00 00 55 14 
   3.6573 1  041             Tx   d 6 44 fa 00 03 06 aa 
   3.6576 1  042             Tx   d 6 44 fa 00 03 06 a5 
   3.6644 1  CA              Rx   d 8 54 00 80 00 05 67 30 00
   3.6645 1  CD              Rx   d 2 7E F4
   3.6647 1  153             Rx   d 6 3F 3F 00 01 00 FF
   3.6649 1  386             Rx   d 5 82 82 82 48 00
   3.6654 1  CB              Rx   d 8 54 00 80 00 05 65 30 00
   3.6656 1  CE              Rx   d 2 80 00
   3.6658 1  154             Rx   d 6 3F 3F 00 01 00 FF
   3.6660 1  387             Rx   d 5 82 82 82 48 00
   3.6707 1  047             Tx   d 7 84 00 00 00 00 5a 5f 
   3.6744 1  CA              Rx   d 8 54 00 80 00 05 67 50 00
   3.6745 1  CD              Rx   d 2 7E F4
   3.6747 1  153             Rx   d 6 3F 3F 00 01 00 FF
   3.6754 1  CB              Rx   d 8 54 00 80 00 05 66 50 00
   3.6736 1  048             Tx   d 7 84 00 00 00 00 55 e4 
   3.6755 1  CE              Rx   d 2 80 00
   3.6758 1  154             Rx   d 6 3F 3F 00 01 00 FF
   3.6764 1  041             Tx   d 6 84 fa 00 03 06 aa 
   3.6768 1  042             Tx   d 6 84 fa 00 03 06 a5 
   3.6844 1  CA              Rx   d 8 54 00 80 00 05 67 70 00
   3.6845 1  CD              Rx   d 2 7E F4
   3.6847 1  153             Rx   d 6 3F 3F 00 01 00 FF
   3.6854 1  CB              Rx   d 8 54 00 80 00 05 66 70 00
   3.6856 1  CE              Rx   d 2 80 00
   3.6858 1  154             Rx   d 6 3F 3F 00 01 00 FF
