date Sat Sep 09 02:13:00 AM 2018
base hex  timestamps absolute
internal events logged
Begin Triggerblock Sat Sep 09 02:13:00 AM 2018
   0.0005 Start of measurement
   0.0006 Start of logging...
  22.2194 1  047             Tx   d 7 84 00 00 00 00 5a 5f 
  22.2198 1  048             Tx   d 7 84 00 00 00 00 55 e4 
  22.2201 1  041             Tx   d 6 84 fa 00 03 06 aa 
  22.2204 1  042             Tx   d 6 84 fa 00 03 06 a5 
  22.2315 1  047             Tx   d 7 c4 00 00 00 00 5a 0f 
  22.2319 1  048             Tx   d 7 c4 00 00 00 00 55 b4 
  22.2322 1  041             Tx   d 6 c4 fa 00 03 06 aa 
  22.2326 1  042             Tx   d 6 c4 fa 00 03 06 a5 
  22.2434 1  047             Tx   d 7 04 00 00 00 00 5a ff 
  22.2438 1  048             Tx   d 7 04 00 00 00 00 55 44 
  22.2441 1  041             Tx   d 6 04 fa 00 03 06 aa 
  22.2445 1  042             Tx   d 6 04 fa 00 03 06 a5 
  22.2553 1  047             Tx   d 7 44 00 00 00 00 5a af 
  22.2556 1  048             Tx   d 7 44 00 00 00 00 55 14 
  22.2560 1  041             Tx   d 6 44 fa 00 03 06 aa 
  22.2563 1  042             Tx   d 6 44 fa 00 03 06 a5 
  22.2680 1  047             Tx   d 7 84 00 00 00 00 5a 5f 
  22.2686 1  048             Tx   d 7 84 00 00 00 00 55 e4 
  22.2690 1  041             Tx   d 6 84 fa 00 03 06 aa 
  22.2694 1  042             Tx   d 6 84 fa 00 03 06 a5 
  22.2808 1  047             Tx   d 7 c4 00 00 00 00 5a 0f 
  22.2814 1  048             Tx   d 7 c4 00 00 00 00 55 b4 
  22.2818 1  041             Tx   d 6 c4 fa 00 03 06 aa 
  22.2821 1  042             Tx   d 6 c4 fa 00 03 06 a5 
  22.2932 1  047             Tx   d 7 04 00 00 00 00 5a ff 
  22.2936 1  048             Tx   d 7 04 00 00 00 00 55 44 
  22.2939 1  041             Tx   d 6 04 fa 00 03 06 aa 
  22.2943 1  042             Tx   d 6 04 fa 00 03 06 a5 
  22.3051 1  047             Tx   d 7 44 00 00 00 00 5a af 
  22.3055 1  048             Tx   d 7 44 00 00 00 00 55 14 
  22.3058 1  041             Tx   d 6 44 fa 00 03 06 aa 
  22.3061 1  042             Tx   d 6 44 fa 00 03 06 a5 
  22.3170 1  047             Tx   d 7 84 00 00 00 00 5a 5f 
  22.3175 1  048             Tx   d 7 84 00 00 00 00 55 e4 
  22.3178 1  041             Tx   d 6 84 fa 00 03 06 aa 
  22.3184 1  042             Tx   d 6 84 fa 00 03 06 a5 
  22.3295 1  047             Tx   d 7 c4 00 00 00 00 5a 0f 
  22.3299 1  048             Tx   d 7 c4 00 00 00 00 55 b4 
  22.3302 1  041             Tx   d 6 c4 fa 00 03 06 aa 
  22.3306 1  042             Tx   d 6 c4 fa 00 03 06 a5 
  22.3414 1  047             Tx   d 7 04 00 00 00 00 5a ff 
  22.3417 1  048             Tx   d 7 04 00 00 00 00 55 44 
  22.3421 1  041             Tx   d 6 04 fa 00 03 06 aa 
  22.3424 1  042             Tx   d 6 04 fa 00 03 06 a5 
  22.3532 1  047             Tx   d 7 44 00 00 00 00 5a af 
  22.3536 1  048             Tx   d 7 44 00 00 00 00 55 14 
  22.3539 1  041             Tx   d 6 44 fa 00 03 06 aa 
  22.3543 1  042             Tx   d 6 44 fa 00 03 06 a5 
  22.3650 1  047             Tx   d 7 84 00 00 00 00 5a 5f 
  22.3654 1  048             Tx   d 7 84 00 00 00 00 55 e4 
  22.3657 1  041             Tx   d 6 84 fa 00 03 06 aa 
  22.3660 1  042             Tx   d 6 84 fa 00 03 06 a5 
  22.3774 1  047             Tx   d 7 c4 00 00 00 00 5a 0f 
  22.3779 1  048             Tx   d 7 c4 00 00 00 00 55 b4 
  22.3782 1  041             Tx   d 6 c4 fa 00 03 06 aa 
  22.3785 1  042             Tx   d 6 c4 fa 00 03 06 a5 
  22.3896 1  047             Tx   d 7 04 00 00 00 00 5a ff 
  22.3900 1  048             Tx   d 7 04 00 00 00 00 55 44 
  22.3904 1  041             Tx   d 6 04 fa 00 03 06 aa 
  22.3907 1  042             Tx   d 6 04 fa 00 03 06 a5 
  22.4015 1  047             Tx   d 7 44 00 00 00 00 5a af 
  22.4019 1  048             Tx   d 7 44 00 00 00 00 55 14 
  22.4022 1  041             Tx   d 6 44 fa 00 03 06 aa 
  22.4026 1  042             Tx   d 6 44 fa 00 03 06 a5 
  22.4133 1  047             Tx   d 7 84 00 00 00 00 5a 5f 
  22.4137 1  048             Tx   d 7 84 00 00 00 00 55 e4 
  22.4140 1  041             Tx   d 6 84 fa 00 03 06 aa 
  22.4144 1  042             Tx   d 6 84 fa 00 03 06 a5 
  22.4255 1  047             Tx   d 7 c4 00 00 00 00 5a 0f 
  22.4260 1  048             Tx   d 7 c4 00 00 00 00 55 b4 
  22.4263 1  041             Tx   d 6 c4 fa 00 03 06 aa 
  22.4266 1  042             Tx   d 6 c4 fa 00 03 06 a5 
  22.4377 1  047             Tx   d 7 04 00 00 00 00 5a ff 
  22.4381 1  048             Tx   d 7 04 00 00 00 00 55 44 
  22.4384 1  041             Tx   d 6 04 fa 00 03 06 aa 
  22.4388 1  042             Tx   d 6 04 fa 00 03 06 a5 
  22.4497 1  047             Tx   d 7 44 00 00 00 00 5a af 
  22.4501 1  048             Tx   d 7 44 00 00 00 00 55 14 
  22.4504 1  041             Tx   d 6 44 fa 00 03 06 aa 
  22.4507 1  042             Tx   d 6 44 fa 00 03 06 a5 
  22.4615 1  047             Tx   d 7 84 00 00 00 00 5a 5f 
  22.4618 1  048             Tx   d 7 84 00 00 00 00 55 e4 
  22.4622 1  041             Tx   d 6 84 fa 00 03 06 aa 
  22.4625 1  042             Tx   d 6 84 fa 00 03 06 a5 
  22.4736 1  047             Tx   d 7 c4 00 00 00 00 5a 0f 
  22.4740 1  048             Tx   d 7 c4 00 00 00 00 55 b4 
  22.4743 1  041             Tx   d 6 c4 fa 00 03 06 aa 
  22.4747 1  042             Tx   d 6 c4 fa 00 03 06 a5 
  22.4857 1  047             Tx   d 7 04 00 00 00 00 5a ff 
  22.4861 1  048             Tx   d 7 04 00 00 00 00 55 44 
  22.4865 1  041             Tx   d 6 04 fa 00 03 06 aa 
  22.4868 1  042             Tx   d 6 04 fa 00 03 06 a5 
  22.4977 1  047             Tx   d 7 44 00 00 00 00 5a af 
  22.4981 1  048             Tx   d 7 44 00 00 00 00 55 14 
  22.4985 1  041             Tx   d 6 44 fa 00 03 06 aa 
  22.4988 1  042             Tx   d 6 44 fa 00 03 06 a5 
  22.5096 1  047             Tx   d 7 84 00 00 00 00 5a 5f 
  22.5100 1  048             Tx   d 7 84 00 00 00 00 55 e4 
  22.5103 1  041             Tx   d 6 84 fa 00 03 06 aa 
  22.5106 1  042             Tx   d 6 84 fa 00 03 06 a5 
  22.5217 1  047             Tx   d 7 c4 00 00 00 00 5a 0f 
  22.5221 1  048             Tx   d 7 c4 00 00 00 00 55 b4 
  22.5225 1  041             Tx   d 6 c4 fa 00 03 06 aa 
  22.5228 1  042             Tx   d 6 c4 fa 00 03 06 a5 
  22.5338 1  047             Tx   d 7 04 00 00 00 00 5a ff 
  22.5342 1  048             Tx   d 7 04 00 00 00 00 55 44 
  22.5346 1  041             Tx   d 6 04 fa 00 03 06 aa 
  22.5349 1  042             Tx   d 6 04 fa 00 03 06 a5 
  22.5457 1  047             Tx   d 7 44 00 00 00 00 5a af 
  22.5461 1  048             Tx   d 7 44 00 00 00 00 55 14 
  22.5465 1  041             Tx   d 6 44 fa 00 03 06 aa 
  22.5468 1  042             Tx   d 6 44 fa 00 03 06 a5 
  22.5577 1  047             Tx   d 7 84 00 00 00 00 5a 5f 
  22.5580 1  048             Tx   d 7 84 00 00 00 00 55 e4 
  22.5584 1  041             Tx   d 6 84 fa 00 03 06 aa 
  22.5587 1  042             Tx   d 6 84 fa 00 03 06 a5 
  22.5698 1  047             Tx   d 7 c4 00 00 00 00 5a 0f 
  22.5703 1  048             Tx   d 7 c4 00 00 00 00 55 b4 
  22.5706 1  041             Tx   d 6 c4 fa 00 03 06 aa 
  22.5710 1  042             Tx   d 6 c4 fa 00 03 06 a5 
  22.5821 1  047             Tx   d 7 04 00 00 00 00 5a ff 
  22.5826 1  048             Tx   d 7 04 00 00 00 00 55 44 
  22.5829 1  041             Tx   d 6 04 fa 00 03 06 aa 
  22.5832 1  042             Tx   d 6 04 fa 00 03 06 a5 
  22.5941 1  047             Tx   d 7 44 00 00 00 00 5a af 
  22.5945 1  048             Tx   d 7 44 00 00 00 00 55 14 
  22.5948 1  041             Tx   d 6 44 fa 00 03 06 aa 
  22.5952 1  042             Tx   d 6 44 fa 00 03 06 a5 
  22.6060 1  047             Tx   d 7 84 00 00 00 00 5a 5f 
  22.6064 1  048             Tx   d 7 84 00 00 00 00 55 e4 
  22.6067 1  041             Tx   d 6 84 fa 00 03 06 aa 
  22.6070 1  042             Tx   d 6 84 fa 00 03 06 a5 
  22.6179 1  047             Tx   d 7 c4 00 00 00 00 5a 0f 
  22.6183 1  048             Tx   d 7 c4 00 00 00 00 55 b4 
  22.6186 1  041             Tx   d 6 c4 fa 00 03 06 aa 
  22.6190 1  042             Tx   d 6 c4 fa 00 03 06 a5 
  22.6302 1  047             Tx   d 7 04 00 00 00 00 5a ff 
  22.6311 1  048             Tx   d 7 04 00 00 00 00 55 44 
  22.6315 1  041             Tx   d 6 04 fa 00 03 06 aa 
  22.6318 1  042             Tx   d 6 04 fa 00 03 06 a5 
  22.6428 1  047             Tx   d 7 44 00 00 00 00 5a af 
  22.6432 1  048             Tx   d 7 44 00 00 00 00 55 14 
  22.6435 1  041             Tx   d 6 44 fa 00 03 06 aa 
  22.6439 1  042             Tx   d 6 44 fa 00 03 06 a5 
  22.6547 1  047             Tx   d 7 84 00 00 00 00 5a 5f 
  22.6551 1  048             Tx   d 7 84 00 00 00 00 55 e4 
  22.6555 1  041             Tx   d 6 84 fa 00 03 06 aa 
  22.6558 1  042             Tx   d 6 84 fa 00 03 06 a5 
  22.6666 1  047             Tx   d 7 c4 00 00 00 00 5a 0f 
  22.6669 1  048             Tx   d 7 c4 00 00 00 00 55 b4 
  22.6673 1  041             Tx   d 6 c4 fa 00 03 06 aa 
  22.6677 1  042             Tx   d 6 c4 fa 00 03 06 a5 
  22.6788 1  047             Tx   d 7 04 00 00 00 00 5a ff 
  22.6792 1  048             Tx   d 7 04 00 00 00 00 55 44 
  22.6795 1  041             Tx   d 6 04 fa 00 03 06 aa 
  22.6799 1  042             Tx   d 6 04 fa 00 03 06 a5 
  22.6910 1  047             Tx   d 7 44 00 00 00 00 5a af 
  22.6914 1  048             Tx   d 7 44 00 00 00 00 55 14 
  22.6918 1  041             Tx   d 6 44 fa 00 03 06 aa 
  22.6921 1  042             Tx   d 6 44 fa 00 03 06 a5 
  22.7029 1  047             Tx   d 7 84 00 00 00 00 5a 5f 
  22.7033 1  048             Tx   d 7 84 00 00 00 00 55 e4 
  22.7036 1  041             Tx   d 6 84 fa 00 03 06 aa 
  22.7040 1  042             Tx   d 6 84 fa 00 03 06 a5 
  22.7147 1  047             Tx   d 7 c4 00 00 00 00 5a 0f 
  22.7151 1  048             Tx   d 7 c4 00 00 00 00 55 b4 
  22.7154 1  041             Tx   d 6 c4 fa 00 03 06 aa 
  22.7157 1  042             Tx   d 6 c4 fa 00 03 06 a5 
  22.7266 1  047             Tx   d 7 04 00 00 00 00 5a ff 
  22.7270 1  048             Tx   d 7 04 00 00 00 00 55 44 
  22.7274 1  041             Tx   d 6 04 fa 00 03 06 aa 
  22.7277 1  042             Tx   d 6 04 fa 00 03 06 a5 
  22.7388 1  047             Tx   d 7 44 00 00 00 00 5a af 
  22.7393 1  048             Tx   d 7 44 00 00 00 00 55 14 
  22.7396 1  041             Tx   d 6 44 fa 00 03 06 aa 
  22.7399 1  042             Tx   d 6 44 fa 00 03 06 a5 
  22.7508 1  047             Tx   d 7 84 00 00 00 00 5a 5f 
  22.7512 1  048             Tx   d 7 84 00 00 00 00 55 e4 
  22.7515 1  041             Tx   d 6 84 fa 00 03 06 aa 
  22.7518 1  042             Tx   d 6 84 fa 00 03 06 a5 
  22.7626 1  047             Tx   d 7 c4 00 00 00 00 5a 0f 
  22.7630 1  048             Tx   d 7 c4 00 00 00 00 55 b4 
  22.7633 1  041             Tx   d 6 c4 fa 00 03 06 aa 
  22.7636 1  042             Tx   d 6 c4 fa 00 03 06 a5 
  22.7749 1  047             Tx   d 7 04 00 00 00 00 5a ff 
  22.7753 1  048             Tx   d 7 04 00 00 00 00 55 44 
  22.7757 1  041             Tx   d 6 04 fa 00 03 06 aa 
  22.7760 1  042             Tx   d 6 04 fa 00 03 06 a5 
  22.7872 1  047             Tx   d 7 44 00 00 00 00 5a af 
  22.7877 1  048             Tx   d 7 44 00 00 00 00 55 14 
  22.7880 1  041             Tx   d 6 44 fa 00 03 06 aa 
  22.7883 1  042             Tx   d 6 44 fa 00 03 06 a5 
  22.7993 1  047             Tx   d 7 84 00 00 00 00 5a 5f 
  22.7996 1  048             Tx   d 7 84 00 00 00 00 55 e4 
  22.8000 1  041             Tx   d 6 84 fa 00 03 06 aa 
  22.8003 1  042             Tx   d 6 84 fa 00 03 06 a5 
  22.8111 1  047             Tx   d 7 c4 00 00 00 00 5a 0f 
  22.8114 1  048             Tx   d 7 c4 00 00 00 00 55 b4 
  22.8118 1  041             Tx   d 6 c4 fa 00 03 06 aa 
  22.8121 1  042             Tx   d 6 c4 fa 00 03 06 a5 
  22.8229 1  047             Tx   d 7 04 00 00 00 00 5a ff 
  22.8233 1  048             Tx   d 7 04 00 00 00 00 55 44 
  22.8237 1  041             Tx   d 6 04 fa 00 03 06 aa 
  22.8240 1  042             Tx   d 6 04 fa 00 03 06 a5 
  22.8353 1  047             Tx   d 7 44 00 00 00 00 5a af 
  22.8357 1  048             Tx   d 7 44 00 00 00 00 55 14 
  22.8361 1  041             Tx   d 6 44 fa 00 03 06 aa 
  22.8364 1  042             Tx   d 6 44 fa 00 03 06 a5 
  22.8473 1  047             Tx   d 7 84 00 00 00 00 5a 5f 
  22.8477 1  048             Tx   d 7 84 00 00 00 00 55 e4 
  22.8480 1  041             Tx   d 6 84 fa 00 03 06 aa 
  22.8484 1  042             Tx   d 6 84 fa 00 03 06 a5 
  22.8592 1  047             Tx   d 7 c4 00 00 00 00 5a 0f 
  22.8595 1  048             Tx   d 7 c4 00 00 00 00 55 b4 
  22.8599 1  041             Tx   d 6 c4 fa 00 03 06 aa 
  22.8602 1  042             Tx   d 6 c4 fa 00 03 06 a5 
  22.8709 1  047             Tx   d 7 04 00 00 00 00 5a ff 
  22.8713 1  048             Tx   d 7 04 00 00 00 00 55 44 
  22.8716 1  041             Tx   d 6 04 fa 00 03 06 aa 
  22.8720 1  042             Tx   d 6 04 fa 00 03 06 a5 
  22.8834 1  047             Tx   d 7 44 00 00 00 00 5a af 
  22.8839 1  048             Tx   d 7 44 00 00 00 00 55 14 
  22.8842 1  041             Tx   d 6 44 fa 00 03 06 aa 
  22.8846 1  042             Tx   d 6 44 fa 00 03 06 a5 
  22.8956 1  047             Tx   d 7 84 00 00 00 00 5a 5f 
  22.8960 1  048             Tx   d 7 84 00 00 00 00 55 e4 
  22.8963 1  041             Tx   d 6 84 fa 00 03 06 aa 
  22.8967 1  042             Tx   d 6 84 fa 00 03 06 a5 
  22.9076 1  047             Tx   d 7 c4 00 00 00 00 5a 0f 
  22.9079 1  048             Tx   d 7 c4 00 00 00 00 55 b4 
  22.9083 1  041             Tx   d 6 c4 fa 00 03 06 aa 
  22.9086 1  042             Tx   d 6 c4 fa 00 03 06 a5 
  22.9194 1  047             Tx   d 7 04 00 00 00 00 5a ff 
  22.9198 1  048             Tx   d 7 04 00 00 00 00 55 44 
  22.9201 1  041             Tx   d 6 04 fa 00 03 06 aa 
  22.9204 1  042             Tx   d 6 04 fa 00 03 06 a5 
  22.9314 1  047             Tx   d 7 44 00 00 00 00 5a af 
  22.9318 1  048             Tx   d 7 44 00 00 00 00 55 14 
  22.9321 1  041             Tx   d 6 44 fa 00 03 06 aa 
  22.9325 1  042             Tx   d 6 44 fa 00 03 06 a5 
  22.9434 1  047             Tx   d 7 84 00 00 00 00 5a 5f 
  22.9439 1  048             Tx   d 7 84 00 00 00 00 55 e4 
  22.9442 1  041             Tx   d 6 84 fa 00 03 06 aa 
  22.9445 1  042             Tx   d 6 84 fa 00 03 06 a5 
  22.9553 1  047             Tx   d 7 c4 00 00 00 00 5a 0f 
  22.9557 1  048             Tx   d 7 c4 00 00 00 00 55 b4 
  22.9561 1  041             Tx   d 6 c4 fa 00 03 06 aa 
  22.9564 1  042             Tx   d 6 c4 fa 00 03 06 a5 
  22.9672 1  047             Tx   d 7 04 00 00 00 00 5a ff 
  22.9676 1  048             Tx   d 7 04 00 00 00 00 55 44 
  22.9679 1  041             Tx   d 6 04 fa 00 03 06 aa 
  22.9682 1  042             Tx   d 6 04 fa 00 03 06 a5 
  22.9795 1  047             Tx   d 7 44 00 00 00 00 5a af 
  22.9800 1  048             Tx   d 7 44 00 00 00 00 55 14 
  22.9803 1  041             Tx   d 6 44 fa 00 03 06 aa 
  22.9807 1  042             Tx   d 6 44 fa 00 03 06 a5 
  22.9918 1  047             Tx   d 7 84 00 00 00 00 5a 5f 
  22.9922 1  048             Tx   d 7 84 00 00 00 00 55 e4 
  22.9925 1  041             Tx   d 6 84 fa 00 03 06 aa 
  22.9928 1  042             Tx   d 6 84 fa 00 03 06 a5 
  23.0037 1  047             Tx   d 7 c4 00 00 00 00 5a 0f 
  23.0040 1  048             Tx   d 7 c4 00 00 00 00 55 b4 
  23.0044 1  041             Tx   d 6 c4 fa 00 03 06 aa 
  23.0047 1  042             Tx   d 6 c4 fa 00 03 06 a5 
  23.0154 1  047             Tx   d 7 04 00 00 00 00 5a ff 
  23.0158 1  048             Tx   d 7 04 00 00 00 00 55 44 
  23.0161 1  041             Tx   d 6 04 fa 00 03 06 aa 
  23.0164 1  042             Tx   d 6 04 fa 00 03 06 a5 
  23.0274 1  047             Tx   d 7 44 00 00 00 00 5a af 
  23.0278 1  048             Tx   d 7 44 00 00 00 00 55 14 
  23.0282 1  041             Tx   d 6 44 fa 00 03 06 aa 
  23.0285 1  042             Tx   d 6 44 fa 00 03 06 a5 
  23.0402 1  047             Tx   d 7 84 00 00 00 00 5a 5f 
  23.0407 1  048             Tx   d 7 84 00 00 00 00 55 e4 
  23.0410 1  041             Tx   d 6 84 fa 00 03 06 aa 
  23.0414 1  042             Tx   d 6 84 fa 00 03 06 a5 
  23.0522 1  047             Tx   d 7 c4 00 00 00 00 5a 0f 
  23.0526 1  048             Tx   d 7 c4 00 00 00 00 55 b4 
  23.0533 1  041             Tx   d 6 c4 fa 00 03 06 aa 
  23.0537 1  042             Tx   d 6 c4 fa 00 03 06 a5 
  23.0645 1  047             Tx   d 7 04 00 00 00 00 5a ff 
  23.0649 1  048             Tx   d 7 04 00 00 00 00 55 44 
  23.0652 1  041             Tx   d 6 04 fa 00 03 06 aa 
  23.0655 1  042             Tx   d 6 04 fa 00 03 06 a5 
  23.0766 1  047             Tx   d 7 44 00 00 00 00 5a af 
  23.0770 1  048             Tx   d 7 44 00 00 00 00 55 14 
  23.0774 1  041             Tx   d 6 44 fa 00 03 06 aa 
  23.0778 1  042             Tx   d 6 44 fa 00 03 06 a5 
  23.0889 1  047             Tx   d 7 84 00 00 00 00 5a 5f 
  23.0894 1  048             Tx   d 7 84 00 00 00 00 55 e4 
  23.0897 1  041             Tx   d 6 84 fa 00 03 06 aa 
  23.0901 1  042             Tx   d 6 84 fa 00 03 06 a5 
  23.1009 1  047             Tx   d 7 c4 00 00 00 00 5a 0f 
  23.1013 1  048             Tx   d 7 c4 00 00 00 00 55 b4 
  23.1016 1  041             Tx   d 6 c4 fa 00 03 06 aa 
  23.1019 1  042             Tx   d 6 c4 fa 00 03 06 a5 
  23.1126 1  047             Tx   d 7 04 00 00 00 00 5a ff 
  23.1130 1  048             Tx   d 7 04 00 00 00 00 55 44 
  23.1134 1  041             Tx   d 6 04 fa 00 03 06 aa 
  23.1137 1  042             Tx   d 6 04 fa 00 03 06 a5 
  23.1245 1  047             Tx   d 7 44 00 00 00 00 5a af 
  23.1249 1  048             Tx   d 7 44 00 00 00 00 55 14 
  23.1253 1  041             Tx   d 6 44 fa 00 03 06 aa 
  23.1256 1  042             Tx   d 6 44 fa 00 03 06 a5 
  23.1369 1  047             Tx   d 7 84 00 00 00 00 5a 5f 
  23.1375 1  048             Tx   d 7 84 00 00 00 00 55 e4 
  23.1378 1  041             Tx   d 6 84 fa 00 03 06 aa 
  23.1382 1  042             Tx   d 6 84 fa 00 03 06 a5 
  23.1492 1  047             Tx   d 7 c4 00 00 00 00 5a 0f 
  23.1496 1  048             Tx   d 7 c4 00 00 00 00 55 b4 
  23.1499 1  041             Tx   d 6 c4 fa 00 03 06 aa 
  23.1502 1  042             Tx   d 6 c4 fa 00 03 06 a5 
  23.1610 1  047             Tx   d 7 04 00 00 00 00 5a ff 
  23.1614 1  048             Tx   d 7 04 00 00 00 00 55 44 
  23.1617 1  041             Tx   d 6 04 fa 00 03 06 aa 
  23.1620 1  042             Tx   d 6 04 fa 00 03 06 a5 
  23.1728 1  047             Tx   d 7 44 00 00 00 00 5a af 
  23.1732 1  048             Tx   d 7 44 00 00 00 00 55 14 
  23.1735 1  041             Tx   d 6 44 fa 00 03 06 aa 
  23.1738 1  042             Tx   d 6 44 fa 00 03 06 a5 
  23.1849 1  047             Tx   d 7 84 00 00 00 00 5a 5f 
  23.1853 1  048             Tx   d 7 84 00 00 00 00 55 e4 
  23.1856 1  041             Tx   d 6 84 fa 00 03 06 aa 
  23.1860 1  042             Tx   d 6 84 fa 00 03 06 a5 
  23.1971 1  047             Tx   d 7 c4 00 00 00 00 5a 0f 
  23.1976 1  048             Tx   d 7 c4 00 00 00 00 55 b4 
  23.1979 1  041             Tx   d 6 c4 fa 00 03 06 aa 
  23.1982 1  042             Tx   d 6 c4 fa 00 03 06 a5 
  23.2091 1  047             Tx   d 7 04 00 00 00 00 5a ff 
  23.2095 1  048             Tx   d 7 04 00 00 00 00 55 44 
  23.2098 1  041             Tx   d 6 04 fa 00 03 06 aa 
  23.2101 1  042             Tx   d 6 04 fa 00 03 06 a5 
  23.2209 1  047             Tx   d 7 44 00 00 00 00 5a af 
  23.2213 1  048             Tx   d 7 44 00 00 00 00 55 14 
  23.2216 1  041             Tx   d 6 44 fa 00 03 06 aa 
  23.2219 1  042             Tx   d 6 44 fa 00 03 06 a5 
  23.2330 1  047             Tx   d 7 84 00 00 00 00 5a 5f 
  23.2335 1  048             Tx   d 7 84 00 00 00 00 55 e4 
  23.2338 1  041             Tx   d 6 84 fa 00 03 06 aa 
  23.2342 1  042             Tx   d 6 84 fa 00 03 06 a5 
  23.2451 1  047             Tx   d 7 c4 00 00 00 00 5a 0f 
  23.2455 1  048             Tx   d 7 c4 00 00 00 00 55 b4 
  23.2459 1  041             Tx   d 6 c4 fa 00 03 06 aa 
  23.2462 1  042             Tx   d 6 c4 fa 00 03 06 a5 
  23.2570 1  047             Tx   d 7 04 00 00 00 00 5a ff 
  23.2575 1  048             Tx   d 7 04 00 00 00 00 55 44 
  23.2578 1  041             Tx   d 6 04 fa 00 03 06 aa 
  23.2582 1  042             Tx   d 6 04 fa 00 03 06 a5 
  23.2690 1  047             Tx   d 7 44 00 00 00 00 5a af 
  23.2694 1  048             Tx   d 7 44 00 00 00 00 55 14 
  23.2697 1  041             Tx   d 6 44 fa 00 03 06 aa 
  23.2700 1  042             Tx   d 6 44 fa 00 03 06 a5 
  23.2812 1  047             Tx   d 7 84 00 00 00 00 5a 5f 
  23.2817 1  048             Tx   d 7 84 00 00 00 00 55 e4 
  23.2821 1  041             Tx   d 6 84 fa 00 03 06 aa 
  23.2824 1  042             Tx   d 6 84 fa 00 03 06 a5 
  23.2936 1  047             Tx   d 7 c4 00 00 00 00 5a 0f 
  23.2940 1  048             Tx   d 7 c4 00 00 00 00 55 b4 
  23.2943 1  041             Tx   d 6 c4 fa 00 03 06 aa 
  23.2946 1  042             Tx   d 6 c4 fa 00 03 06 a5 
  23.3055 1  047             Tx   d 7 04 00 00 00 00 5a ff 
  23.3058 1  048             Tx   d 7 04 00 00 00 00 55 44 
  23.3062 1  041             Tx   d 6 04 fa 00 03 06 aa 
  23.3065 1  042             Tx   d 6 04 fa 00 03 06 a5 
  23.3173 1  047             Tx   d 7 44 00 00 00 00 5a af 
  23.3177 1  048             Tx   d 7 44 00 00 00 00 55 14 
  23.3181 1  041             Tx   d 6 44 fa 00 03 06 aa 
  23.3184 1  042             Tx   d 6 44 fa 00 03 06 a5 
  23.3294 1  047             Tx   d 7 84 00 00 00 00 5a 5f 
  23.3298 1  048             Tx   d 7 84 00 00 00 00 55 e4 
  23.3302 1  041             Tx   d 6 84 fa 00 03 06 aa 
  23.3305 1  042             Tx   d 6 84 fa 00 03 06 a5 
  23.3418 1  047             Tx   d 7 c4 00 00 00 00 5a 0f 
  23.3422 1  048             Tx   d 7 c4 00 00 00 00 55 b4 
  23.3426 1  041             Tx   d 6 c4 fa 00 03 06 aa 
  23.3429 1  042             Tx   d 6 c4 fa 00 03 06 a5 
  23.3538 1  047             Tx   d 7 04 00 00 00 00 5a ff 
  23.3542 1  048             Tx   d 7 04 00 00 00 00 55 44 
  23.3545 1  041             Tx   d 6 04 fa 00 03 06 aa 
  23.3549 1  042             Tx   d 6 04 fa 00 03 06 a5 
  23.3656 1  047             Tx   d 7 44 00 00 00 00 5a af 
  23.3660 1  048             Tx   d 7 44 00 00 00 00 55 14 
  23.3663 1  041             Tx   d 6 44 fa 00 03 06 aa 
  23.3667 1  042             Tx   d 6 44 fa 00 03 06 a5 
  23.3775 1  047             Tx   d 7 84 00 00 00 00 5a 5f 
  23.3780 1  048             Tx   d 7 84 00 00 00 00 55 e4 
  23.3784 1  041             Tx   d 6 84 fa 00 03 06 aa 
  23.3787 1  042             Tx   d 6 84 fa 00 03 06 a5 
  23.3899 1  047             Tx   d 7 c4 00 00 00 00 5a 0f 
  23.3904 1  048             Tx   d 7 c4 00 00 00 00 55 b4 
  23.3907 1  041             Tx   d 6 c4 fa 00 03 06 aa 
  23.3911 1  042             Tx   d 6 c4 fa 00 03 06 a5 
  23.4020 1  047             Tx   d 7 04 00 00 00 00 5a ff 
  23.4024 1  048             Tx   d 7 04 00 00 00 00 55 44 
  23.4027 1  041             Tx   d 6 04 fa 00 03 06 aa 
  23.4031 1  042             Tx   d 6 04 fa 00 03 06 a5 
  23.4138 1  047             Tx   d 7 44 00 00 00 00 5a af 
  23.4142 1  048             Tx   d 7 44 00 00 00 00 55 14 
  23.4145 1  041             Tx   d 6 44 fa 00 03 06 aa 
  23.4149 1  042             Tx   d 6 44 fa 00 03 06 a5 
  23.4256 1  047             Tx   d 7 84 00 00 00 00 5a 5f 
  23.4260 1  048             Tx   d 7 84 00 00 00 00 55 e4 
  23.4263 1  041             Tx   d 6 84 fa 00 03 06 aa 
  23.4266 1  042             Tx   d 6 84 fa 00 03 06 a5 
  23.4378 1  047             Tx   d 7 c4 00 00 00 00 5a 0f 
  23.4382 1  048             Tx   d 7 c4 00 00 00 00 55 b4 
  23.4385 1  041             Tx   d 6 c4 fa 00 03 06 aa 
  23.4389 1  042             Tx   d 6 c4 fa 00 03 06 a5 
  23.4500 1  047             Tx   d 7 04 00 00 00 00 5a ff 
  23.4504 1  048             Tx   d 7 04 00 00 00 00 55 44 
  23.4507 1  041             Tx   d 6 04 fa 00 03 06 aa 
  23.4511 1  042             Tx   d 6 04 fa 00 03 06 a5 
  23.4619 1  047             Tx   d 7 44 00 00 00 00 5a af 
  23.4623 1  048             Tx   d 7 44 00 00 00 00 55 14 
  23.4626 1  041             Tx   d 6 44 fa 00 03 06 aa 
  23.4629 1  042             Tx   d 6 44 fa 00 03 06 a5 
  23.4737 1  047             Tx   d 7 84 00 00 00 00 5a 5f 
  23.4740 1  048             Tx   d 7 84 00 00 00 00 55 e4 
  23.4744 1  041             Tx   d 6 84 fa 00 03 06 aa 
  23.4751 1  042             Tx   d 6 84 fa 00 03 06 a5 
  23.4862 1  047             Tx   d 7 c4 00 00 00 00 5a 0f 
  23.4866 1  048             Tx   d 7 c4 00 00 00 00 55 b4 
  23.4869 1  041             Tx   d 6 c4 fa 00 03 06 aa 
  23.4874 1  042             Tx   d 6 c4 fa 00 03 06 a5 
