date Sat Sep 09 02:15:49 AM 2018
base hex  timestamps absolute
internal events logged
Begin Triggerblock Sat Sep 09 02:15:49 AM 2018
   0.0005 Start of measurement
   0.0007 Start of logging...
   0.0025 1  CA              Rx   d 8 54 00 80 00 00 00 70 00
   2.7155 1  CD              Rx   d 2 7E F4
   2.7157 1  153             Rx   d 6 41 3F 00 01 00 FF
   2.7164 1  CB              Rx   d 8 54 00 80 00 00 02 70 00
   2.7165 1  CE              Rx   d 2 80 00
   2.7167 1  154             Rx   d 6 41 3F 00 01 00 FF
   2.7254 1  CA              Rx   d 8 54 00 80 00 00 00 10 00
   2.7255 1  CD              Rx   d 2 7E F4
   2.7257 1  153             Rx   d 6 41 3F 00 01 00 FF
   2.7264 1  CB              Rx   d 8 54 00 80 00 00 02 10 00
   2.7265 1  CE              Rx   d 2 80 00
   2.7267 1  154             Rx   d 6 41 3F 00 01 00 FF
   2.7354 1  CA              Rx   d 8 54 00 80 00 00 01 30 00
   2.7355 1  CD              Rx   d 2 7E F4
   2.7357 1  153             Rx   d 6 41 3F 00 01 00 FF
   2.7359 1  386             Rx   d 5 82 82 82 48 00
   2.7364 1  CB              Rx   d 8 54 00 80 00 00 02 30 00
   2.7365 1  CE              Rx   d 2 80 00
   2.7367 1  154             Rx   d 6 41 3F 00 01 00 FF
   2.7369 1  387             Rx   d 5 82 82 82 48 00
   2.7453 1  CA              Rx   d 8 54 00 80 00 00 01 50 00
   2.7455 1  CD              Rx   d 2 7E F4
   2.7457 1  153             Rx   d 6 41 3F 00 01 00 FF
   2.7464 1  CB              Rx   d 8 54 00 80 00 00 02 50 00
   2.7465 1  CE              Rx   d 2 80 00
   2.7467 1  154             Rx   d 6 41 3F 00 01 00 FF
   2.7554 1  CA              Rx   d 8 54 00 80 00 00 00 70 00
   2.7555 1  CD              Rx   d 2 7E F4
   2.7557 1  153             Rx   d 6 41 3F 00 01 00 FF
   2.7564 1  CB              Rx   d 8 54 00 80 00 00 02 70 00
   2.7565 1  CE              Rx   d 2 80 00
   2.7567 1  154             Rx   d 6 41 3F 00 01 00 FF
   2.7653 1  CA              Rx   d 8 54 00 80 00 00 00 10 00
   2.7655 1  CD              Rx   d 2 7E F4
   2.7657 1  153             Rx   d 6 41 3F 00 01 00 FF
   2.7664 1  CB              Rx   d 8 54 00 80 00 00 02 10 00
   2.7665 1  CE              Rx   d 2 80 00
   2.7667 1  154             Rx   d 6 41 3F 00 01 00 FF
   2.7754 1  CA              Rx   d 8 54 00 80 00 00 00 30 00
   2.7755 1  CD              Rx   d 2 7E F4
   2.7757 1  153             Rx   d 6 41 3F 00 01 00 FF
   2.7764 1  CB              Rx   d 8 54 00 80 00 00 02 30 00
   2.7765 1  CE              Rx   d 2 80 00
   2.7767 1  154             Rx   d 6 41 3F 00 01 00 FF
   2.7854 1  CA              Rx   d 8 54 00 80 00 00 00 50 00
   2.7855 1  CD              Rx   d 2 7E F4
   2.7857 1  153             Rx   d 6 41 3F 00 01 00 FF
   2.7864 1  CB              Rx   d 8 54 00 80 00 00 01 50 00
   2.7865 1  CE              Rx   d 2 80 00
   2.7867 1  154             Rx   d 6 41 3F 00 01 00 FF
   2.7954 1  CA              Rx   d 8 54 00 80 00 00 00 70 00
   2.7955 1  CD              Rx   d 2 7E F4
   2.7957 1  153             Rx   d 6 41 3F 00 01 00 FF
   2.7964 1  CB              Rx   d 8 54 00 80 00 00 01 70 00
   2.7965 1  CE              Rx   d 2 80 00
   2.7967 1  154             Rx   d 6 41 3F 00 01 00 FF
   2.8054 1  CA              Rx   d 8 54 00 80 00 00 00 10 00
   2.8055 1  CD              Rx   d 2 7E F4
   2.8057 1  153             Rx   d 6 41 3F 00 01 00 FF
   2.8064 1  CB              Rx   d 8 54 00 80 00 00 01 10 00
   2.8065 1  CE              Rx   d 2 80 00
   2.8067 1  154             Rx   d 6 41 3F 00 01 00 FF
   2.8154 1  CA              Rx   d 8 54 00 80 00 00 00 30 00
   2.8155 1  CD              Rx   d 2 7E F4
   2.8157 1  153             Rx   d 6 41 3F 00 01 00 FF
   2.8164 1  CB              Rx   d 8 54 00 80 00 00 01 30 00
   2.8165 1  CE              Rx   d 2 80 00
   2.8167 1  154             Rx   d 6 41 3F 00 01 00 FF
   2.8254 1  CA              Rx   d 8 54 00 80 00 00 01 50 00
   2.8255 1  CD              Rx   d 2 7E F4
   2.8257 1  153             Rx   d 6 41 3F 00 01 00 FF
   2.8264 1  CB              Rx   d 8 54 00 80 00 00 01 50 00
   2.8265 1  CE              Rx   d 2 80 00
   2.8267 1  154             Rx   d 6 41 3F 00 01 00 FF
   2.8354 1  CA              Rx   d 8 54 00 80 00 00 01 70 00
   2.8356 1  CD              Rx   d 2 7E F4
   2.8357 1  153             Rx   d 6 41 3F 00 01 00 FF
   2.8360 1  386             Rx   d 5 8A 8A 88 49 00
   2.8362 1  684             Rx   d 8 00 00 00 00 00 00 00 00
   2.8364 1  CB              Rx   d 8 54 00 80 00 00 01 70 00
   2.8366 1  CE              Rx   d 2 80 00
   2.8368 1  154             Rx   d 6 41 3F 00 01 00 FF
   2.8369 1  387             Rx   d 5 8A 8A 88 49 00
   2.8372 1  685             Rx   d 8 00 00 00 00 00 00 00 00
   2.8454 1  CA              Rx   d 8 54 00 80 00 00 01 10 00
   2.8455 1  CD              Rx   d 2 7E F4
   2.8457 1  153             Rx   d 6 41 3F 00 01 00 FF
   2.8464 1  CB              Rx   d 8 54 00 80 00 00 01 10 00
   2.8465 1  CE              Rx   d 2 80 00
   2.8467 1  154             Rx   d 6 41 3F 00 01 00 FF
   2.8554 1  CA              Rx   d 8 54 00 80 00 00 00 30 00
   2.8555 1  CD              Rx   d 2 7E F4
   2.8557 1  153             Rx   d 6 41 3F 00 01 00 FF
   2.8564 1  CB              Rx   d 8 54 00 80 00 00 01 30 00
   2.8565 1  CE              Rx   d 2 80 00
   2.8567 1  154             Rx   d 6 41 3F 00 01 00 FF
   2.8654 1  CA              Rx   d 8 54 00 80 00 00 00 50 00
   2.8655 1  CD              Rx   d 2 7E F4
   2.8657 1  153             Rx   d 6 41 3F 00 01 00 FF
   2.8664 1  CB              Rx   d 8 54 00 80 00 00 01 50 00
   2.8665 1  CE              Rx   d 2 80 00
   2.8667 1  154             Rx   d 6 41 3F 00 01 00 FF
   2.8754 1  CA              Rx   d 8 54 00 80 00 00 01 70 00
   2.8755 1  CD              Rx   d 2 7E F4
   2.8757 1  153             Rx   d 6 41 3F 00 01 00 FF
   2.8764 1  CB              Rx   d 8 54 00 80 00 00 01 70 00
   2.8765 1  CE              Rx   d 2 80 00
   2.8767 1  154             Rx   d 6 41 3F 00 01 00 FF
   2.8854 1  CA              Rx   d 8 54 00 80 00 00 00 10 00
   2.8855 1  CD              Rx   d 2 7E F4
   2.8857 1  153             Rx   d 6 41 3F 00 01 00 FF
   2.8864 1  CB              Rx   d 8 54 00 80 00 00 01 10 00
   2.8865 1  CE              Rx   d 2 80 00
   2.8867 1  154             Rx   d 6 41 3F 00 01 00 FF
   2.8954 1  CA              Rx   d 8 54 00 80 00 00 00 30 00
   2.8955 1  CD              Rx   d 2 7E F4
   2.8957 1  153             Rx   d 6 41 3F 00 01 00 FF
   2.8964 1  CB              Rx   d 8 54 00 80 00 00 01 30 00
   2.8965 1  CE              Rx   d 2 80 00
   2.8967 1  154             Rx   d 6 41 3F 00 01 00 FF
   2.9055 1  CA              Rx   d 8 54 00 80 00 00 00 50 00
   2.9057 1  153             Rx   d 6 41 3F 00 01 00 FF
   2.9064 1  CB              Rx   d 8 54 00 80 00 00 01 50 00
   2.9065 1  CE              Rx   d 2 80 00
   2.9067 1  154             Rx   d 6 41 3F 00 01 00 FF
   2.9154 1  CA              Rx   d 8 54 00 80 00 00 00 70 00
   2.9155 1  CD              Rx   d 2 7E F4
   2.9157 1  153             Rx   d 6 41 3F 00 01 00 FF
   2.9164 1  CB              Rx   d 8 54 00 80 00 00 01 70 00
   2.9165 1  CE              Rx   d 2 80 00
   2.9167 1  154             Rx   d 6 41 3F 00 01 00 FF
   2.9254 1  CA              Rx   d 8 54 00 80 00 00 00 10 00
   2.9255 1  CD              Rx   d 2 7E F4
   2.9257 1  153             Rx   d 6 41 3F 00 01 00 FF
   2.9264 1  CB              Rx   d 8 54 00 80 00 00 01 10 00
   2.9265 1  CE              Rx   d 2 80 00
   2.9267 1  154             Rx   d 6 41 3F 00 01 00 FF
   2.9335 1  047             Tx   d 7 c4 00 00 00 00 5a 0f 
   2.9337 1  048             Tx   d 7 c4 00 00 00 00 55 b4 
   2.9338 1  041             Tx   d 6 c4 fa 00 03 06 aa 
   2.9340 1  042             Tx   d 6 c4 fa 00 03 06 a5 
   2.9354 1  CA              Rx   d 8 54 00 80 00 00 01 30 00
   2.9355 1  CD              Rx   d 2 7E F4
   2.9358 1  153             Rx   d 6 41 3F 00 01 00 FF
   2.9359 1  386             Rx   d 5 93 92 90 4A 00
   2.9364 1  CB              Rx   d 8 54 00 80 00 00 01 30 00
   2.9365 1  CE              Rx   d 2 80 00
   2.9367 1  154             Rx   d 6 41 3F 00 01 00 FF
   2.9369 1  387             Rx   d 5 93 92 90 4A 00
   2.9428 1  047             Tx   d 7 04 00 00 00 00 5a ff 
   2.9430 1  048             Tx   d 7 04 00 00 00 00 55 44 
   2.9431 1  041             Tx   d 6 04 fa 00 03 06 aa 
   2.9433 1  042             Tx   d 6 04 fa 00 03 06 a5 
   2.9454 1  CA              Rx   d 8 54 00 80 00 00 00 50 00
   2.9455 1  CD              Rx   d 2 7E F4
   2.9457 1  153             Rx   d 6 41 3F 00 01 00 FF
   2.9464 1  CB              Rx   d 8 54 00 80 00 00 01 50 00
   2.9465 1  CE              Rx   d 2 80 00
   2.9468 1  154             Rx   d 6 41 3F 00 01 00 FF
   2.9521 1  047             Tx   d 7 44 00 00 00 00 5a af 
   2.9523 1  048             Tx   d 7 44 00 00 00 00 55 14 
   2.9525 1  041             Tx   d 6 44 fa 00 03 06 aa 
   2.9526 1  042             Tx   d 6 44 fa 00 03 06 a5 
   2.9554 1  CA              Rx   d 8 54 00 80 00 00 00 70 00
   2.9555 1  CD              Rx   d 2 7E F4
   2.9557 1  153             Rx   d 6 41 3F 00 01 00 FF
   2.9564 1  CB              Rx   d 8 54 00 80 00 00 01 70 00
   2.9565 1  CE              Rx   d 2 80 00
   2.9567 1  154             Rx   d 6 41 3F 00 01 00 FF
   2.9619 1  047             Tx   d 7 84 00 00 00 00 5a 5f 
   2.9621 1  048             Tx   d 7 84 00 00 00 00 55 e4 
   2.9623 1  041             Tx   d 6 84 fa 00 03 06 aa 
   2.9624 1  042             Tx   d 6 84 fa 00 03 06 a5 
   2.9654 1  CA              Rx   d 8 54 00 80 00 00 00 10 00
   2.9655 1  CD              Rx   d 2 7E F4
   2.9657 1  153             Rx   d 6 41 3F 00 01 00 FF
   2.9664 1  CB              Rx   d 8 54 00 80 00 00 01 10 00
   2.9665 1  CE              Rx   d 2 80 00
   2.9667 1  154             Rx   d 6 41 3F 00 01 00 FF
   2.9713 1  047             Tx   d 7 c4 00 00 00 00 5a 0f 
   2.9715 1  048             Tx   d 7 c4 00 00 00 00 55 b4 
   2.9716 1  041             Tx   d 6 c4 fa 00 03 06 aa 
   2.9717 1  042             Tx   d 6 c4 fa 00 03 06 a5 
   2.9754 1  CA              Rx   d 8 54 00 80 00 00 00 30 00
   2.9755 1  CD              Rx   d 2 7E F4
   2.9757 1  153             Rx   d 6 41 3F 00 01 00 FF
   2.9764 1  CB              Rx   d 8 54 00 80 00 00 02 30 00
   2.9765 1  CE              Rx   d 2 80 00
   2.9768 1  154             Rx   d 6 41 3F 00 01 00 FF
   2.9807 1  047             Tx   d 7 04 00 00 00 00 5a ff 
   2.9809 1  048             Tx   d 7 04 00 00 00 00 55 44 
   2.9811 1  041             Tx   d 6 04 fa 00 03 06 aa 
   2.9822 1  042             Tx   d 6 04 fa 00 03 06 a5 
   2.9854 1  CA              Rx   d 8 54 00 80 00 00 01 50 00
   2.9855 1  CD              Rx   d 2 7E F4
   2.9858 1  153             Rx   d 6 41 3F 00 01 00 FF
   2.9864 1  CB              Rx   d 8 54 00 80 00 00 02 50 00
   2.9865 1  CE              Rx   d 2 80 00
   2.9867 1  154             Rx   d 6 41 3F 00 01 00 FF
   2.9912 1  047             Tx   d 7 44 00 00 00 00 5a af 
   2.9914 1  048             Tx   d 7 44 00 00 00 00 55 14 
   2.9916 1  041             Tx   d 6 44 fa 00 03 06 aa 
   2.9917 1  042             Tx   d 6 44 fa 00 03 06 a5 
   2.9954 1  CA              Rx   d 8 54 00 80 00 00 01 70 00
   2.9955 1  CD              Rx   d 2 7E F4
   2.9957 1  153             Rx   d 6 41 3F 00 01 00 FF
   2.9964 1  CB              Rx   d 8 54 00 80 00 00 02 70 00
   2.9966 1  CE              Rx   d 2 80 00
   2.9967 1  154             Rx   d 6 41 3F 00 01 00 FF
   3.0015 1  047             Tx   d 7 84 00 00 00 00 5a 5f 
   3.0017 1  048             Tx   d 7 84 00 00 00 00 55 e4 
   3.0018 1  041             Tx   d 6 84 fa 00 03 06 aa 
   3.0020 1  042             Tx   d 6 84 fa 00 03 06 a5 
   3.0054 1  CA              Rx   d 8 54 00 80 00 00 01 10 00
   3.0056 1  CD              Rx   d 2 7E F4
   3.0057 1  153             Rx   d 6 41 3F 00 01 00 FF
   3.0064 1  CB              Rx   d 8 54 00 80 00 00 02 10 00
   3.0065 1  CE              Rx   d 2 80 00
   3.0067 1  154             Rx   d 6 41 3F 00 01 00 FF
   3.0118 1  047             Tx   d 7 c4 00 00 00 00 5a 0f 
   3.0121 1  048             Tx   d 7 c4 00 00 00 00 55 b4 
   3.0122 1  041             Tx   d 6 c4 fa 00 03 06 aa 
   3.0124 1  042             Tx   d 6 c4 fa 00 03 06 a5 
   3.0154 1  CA              Rx   d 8 54 00 80 00 00 00 30 00
   3.0155 1  CD              Rx   d 2 7E F4
   3.0158 1  153             Rx   d 6 41 3F 00 01 00 FF
   3.0164 1  CB              Rx   d 8 54 00 80 00 00 02 30 00
   3.0165 1  CE              Rx   d 2 80 00
   3.0167 1  154             Rx   d 6 41 3F 00 01 00 FF
   3.0215 1  047             Tx   d 7 04 00 00 00 00 5a ff 
   3.0217 1  048             Tx   d 7 04 00 00 00 00 55 44 
   3.0218 1  041             Tx   d 6 04 fa 00 03 06 aa 
   3.0220 1  042             Tx   d 6 04 fa 00 03 06 a5 
   3.0254 1  CA              Rx   d 8 54 00 80 00 00 00 50 00
   3.0255 1  CD              Rx   d 2 7E F4
   3.0257 1  153             Rx   d 6 41 3F 00 01 00 FF
   3.0264 1  CB              Rx   d 8 54 00 80 00 00 02 50 00
   3.0265 1  CE              Rx   d 2 80 00
   3.0267 1  154             Rx   d 6 41 3F 00 01 00 FF
   3.0308 1  047             Tx   d 7 44 00 00 00 00 5a af 
   3.0310 1  048             Tx   d 7 44 00 00 00 00 55 14 
   3.0312 1  041             Tx   d 6 44 fa 00 03 06 aa 
   3.0313 1  042             Tx   d 6 44 fa 00 03 06 a5 
   3.0354 1  CA              Rx   d 8 54 00 80 00 00 01 70 00
   3.0355 1  CD              Rx   d 2 7E F4
   3.0358 1  153             Rx   d 6 41 3F 00 01 00 FF
   3.0359 1  386             Rx   d 5 9A 98 98 4B 00
   3.0364 1  CB              Rx   d 8 54 00 80 00 00 02 70 00
   3.0365 1  CE              Rx   d 2 80 00
   3.0367 1  154             Rx   d 6 41 3F 00 01 00 FF
   3.0369 1  387             Rx   d 5 9A 98 98 4B 00
   3.0418 1  047             Tx   d 7 84 00 00 00 00 5a 5f 
   3.0420 1  048             Tx   d 7 84 00 00 00 00 55 e4 
   3.0421 1  041             Tx   d 6 84 fa 00 03 06 aa 
   3.0423 1  042             Tx   d 6 84 fa 00 03 06 a5 
   3.0454 1  CA              Rx   d 8 54 00 80 00 00 01 10 00
   3.0455 1  CD              Rx   d 2 7E F4
   3.0457 1  153             Rx   d 6 41 3F 00 01 00 FF
   3.0464 1  CB              Rx   d 8 54 00 80 00 00 02 10 00
   3.0465 1  CE              Rx   d 2 80 00
   3.0467 1  154             Rx   d 6 41 3F 00 01 00 FF
   3.0511 1  047             Tx   d 7 c4 00 00 00 00 5a 0f 
   3.0513 1  048             Tx   d 7 c4 00 00 00 00 55 b4 
   3.0514 1  041             Tx   d 6 c4 fa 00 03 06 aa 
   3.0516 1  042             Tx   d 6 c4 fa 00 03 06 a5 
   3.0554 1  CA              Rx   d 8 54 00 80 00 00 01 30 00
   3.0555 1  CD              Rx   d 2 7E F4
   3.0557 1  153             Rx   d 6 41 3F 00 01 00 FF
   3.0564 1  CB              Rx   d 8 54 00 80 00 00 02 30 00
   3.0565 1  CE              Rx   d 2 80 00
   3.0568 1  154             Rx   d 6 41 3F 00 01 00 FF
   3.0611 1  047             Tx   d 7 04 00 00 00 00 5a ff 
   3.0618 1  048             Tx   d 7 04 00 00 00 00 55 44 
   3.0620 1  041             Tx   d 6 04 fa 00 03 06 aa 
   3.0621 1  042             Tx   d 6 04 fa 00 03 06 a5 
   3.0654 1  CA              Rx   d 8 54 00 80 00 00 01 50 00
   3.0655 1  CD              Rx   d 2 7E F4
   3.0658 1  153             Rx   d 6 41 3F 00 01 00 FF
   3.0664 1  CB              Rx   d 8 54 00 80 00 00 02 50 00
   3.0665 1  CE              Rx   d 2 80 00
   3.0667 1  154             Rx   d 6 41 3F 00 01 00 FF
   3.0713 1  047             Tx   d 7 44 00 00 00 00 5a af 
   3.0715 1  048             Tx   d 7 44 00 00 00 00 55 14 
   3.0717 1  041             Tx   d 6 44 fa 00 03 06 aa 
   3.0718 1  042             Tx   d 6 44 fa 00 03 06 a5 
   3.0754 1  CA              Rx   d 8 54 00 80 00 00 01 70 00
   3.0755 1  CD              Rx   d 2 7E F4
   3.0757 1  153             Rx   d 6 41 3F 00 01 00 FF
   3.0764 1  CB              Rx   d 8 54 00 80 00 00 02 70 00
   3.0765 1  CE              Rx   d 2 80 00
   3.0767 1  154             Rx   d 6 41 3F 00 01 00 FF
   3.0808 1  047             Tx   d 7 84 00 00 00 00 5a 5f 
   3.0810 1  048             Tx   d 7 84 00 00 00 00 55 e4 
   3.0812 1  041             Tx   d 6 84 fa 00 03 06 aa 
   3.0813 1  042             Tx   d 6 84 fa 00 03 06 a5 
   3.0854 1  CA              Rx   d 8 54 00 80 00 00 01 10 00
   3.0856 1  CD              Rx   d 2 7E F4
   3.0858 1  153             Rx   d 6 41 3F 00 01 00 FF
   3.0864 1  CB              Rx   d 8 54 00 80 00 00 02 10 00
   3.0865 1  CE              Rx   d 2 80 00
   3.0867 1  154             Rx   d 6 41 3F 00 01 00 FF
   3.0915 1  047             Tx   d 7 c4 00 00 00 00 5a 0f 
   3.0918 1  048             Tx   d 7 c4 00 00 00 00 55 b4 
   3.0920 1  041             Tx   d 6 c4 fa 00 03 06 aa 
   3.0922 1  042             Tx   d 6 c4 fa 00 03 06 a5 
   3.0954 1  CA              Rx   d 8 54 00 80 00 00 00 30 00
   3.0955 1  CD              Rx   d 2 7E F4
   3.0958 1  153             Rx   d 6 41 3F 00 01 00 FF
   3.0964 1  CB              Rx   d 8 54 00 80 00 00 02 30 00
   3.0965 1  CE              Rx   d 2 80 00
   3.0967 1  154             Rx   d 6 41 3F 00 01 00 FF
   3.1010 1  047             Tx   d 7 04 00 00 00 00 5a ff 
   3.1011 1  048             Tx   d 7 04 00 00 00 00 55 44 
   3.1013 1  041             Tx   d 6 04 fa 00 03 06 aa 
   3.1014 1  042             Tx   d 6 04 fa 00 03 06 a5 
   3.1054 1  CA              Rx   d 8 54 00 80 00 00 01 50 00
   3.1055 1  CD              Rx   d 2 7E F4
   3.1057 1  153             Rx   d 6 41 3F 00 01 00 FF
   3.1064 1  CB              Rx   d 8 54 00 80 00 00 01 50 00
   3.1065 1  CE              Rx   d 2 80 00
   3.1067 1  154             Rx   d 6 41 3F 00 01 00 FF
   3.1113 1  047             Tx   d 7 44 00 00 00 00 5a af 
   3.1116 1  048             Tx   d 7 44 00 00 00 00 55 14 
   3.1126 1  041             Tx   d 6 44 fa 00 03 06 aa 
   3.1128 1  042             Tx   d 6 44 fa 00 03 06 a5 
   3.1154 1  CA              Rx   d 8 54 00 80 00 00 00 70 00
   3.1155 1  CD              Rx   d 2 7E F4
   3.1157 1  153             Rx   d 6 41 3F 00 01 00 FF
   3.1164 1  CB              Rx   d 8 54 00 80 00 00 01 70 00
   3.1165 1  CE              Rx   d 2 80 00
   3.1167 1  154             Rx   d 6 41 3F 00 01 00 FF
   3.1217 1  047             Tx   d 7 84 00 00 00 00 5a 5f 
   3.1219 1  048             Tx   d 7 84 00 00 00 00 55 e4 
   3.1220 1  041             Tx   d 6 84 fa 00 03 06 aa 
   3.1221 1  042             Tx   d 6 84 fa 00 03 06 a5 
   3.1254 1  CA              Rx   d 8 54 00 80 00 00 01 10 00
   3.1255 1  CD              Rx   d 2 7E F4
   3.1257 1  153             Rx   d 6 41 3F 00 01 00 FF
   3.1264 1  CB              Rx   d 8 54 00 80 00 00 01 10 00
   3.1265 1  CE              Rx   d 2 80 00
   3.1267 1  154             Rx   d 6 41 3F 00 01 00 FF
   3.1314 1  047             Tx   d 7 c4 00 00 00 00 5a 0f 
   3.1316 1  048             Tx   d 7 c4 00 00 00 00 55 b4 
   3.1317 1  041             Tx   d 6 c4 fa 00 03 06 aa 
   3.1319 1  042             Tx   d 6 c4 fa 00 03 06 a5 
   3.1354 1  CA              Rx   d 8 54 00 80 00 00 01 30 00
   3.1355 1  CD              Rx   d 2 7E F4
   3.1357 1  153             Rx   d 6 41 3F 00 01 00 FF
   3.1359 1  386             Rx   d 5 A2 A2 A0 4C 00
   3.1364 1  CB              Rx   d 8 54 00 80 00 00 01 30 00
   3.1365 1  CE              Rx   d 2 80 00
   3.1368 1  154             Rx   d 6 41 3F 00 01 00 FF
   3.1369 1  387             Rx   d 5 A2 A2 A0 4C 00
   3.1411 1  047             Tx   d 7 04 00 00 00 00 5a ff 
   3.1414 1  048             Tx   d 7 04 00 00 00 00 55 44 
   3.1415 1  041             Tx   d 6 04 fa 00 03 06 aa 
   3.1416 1  042             Tx   d 6 04 fa 00 03 06 a5 
   3.1454 1  CA              Rx   d 8 54 00 80 00 00 01 50 00
   3.1455 1  CD              Rx   d 2 7E F4
   3.1458 1  153             Rx   d 6 41 3F 00 01 00 FF
   3.1464 1  CB              Rx   d 8 54 00 80 00 00 01 50 00
   3.1465 1  CE              Rx   d 2 80 00
   3.1467 1  154             Rx   d 6 41 3F 00 01 00 FF
   3.1512 1  047             Tx   d 7 44 00 00 00 00 5a af 
   3.1513 1  048             Tx   d 7 44 00 00 00 00 55 14 
   3.1515 1  041             Tx   d 6 44 fa 00 03 06 aa 
   3.1516 1  042             Tx   d 6 44 fa 00 03 06 a5 
   3.1554 1  CA              Rx   d 8 54 00 80 00 00 01 70 00
   3.1555 1  CD              Rx   d 2 7E F4
   3.1557 1  153             Rx   d 6 41 3F 00 01 00 FF
   3.1564 1  CB              Rx   d 8 54 00 80 00 00 01 70 00
   3.1566 1  CE              Rx   d 2 80 00
   3.1567 1  154             Rx   d 6 41 3F 00 01 00 FF
   3.1614 1  047             Tx   d 7 84 00 00 00 00 5a 5f 
   3.1616 1  048             Tx   d 7 84 00 00 00 00 55 e4 
   3.1618 1  041             Tx   d 6 84 fa 00 03 06 aa 
   3.1619 1  042             Tx   d 6 84 fa 00 03 06 a5 
   3.1654 1  CA              Rx   d 8 54 00 80 00 00 01 10 00
   3.1655 1  CD              Rx   d 2 7E F4
   3.1657 1  153             Rx   d 6 41 3F 00 01 00 FF
   3.1664 1  CB              Rx   d 8 54 00 80 00 00 01 10 00
   3.1665 1  CE              Rx   d 2 80 00
   3.1667 1  154             Rx   d 6 41 3F 00 01 00 FF
   3.1709 1  047             Tx   d 7 c4 00 00 00 00 5a 0f 
   3.1710 1  048             Tx   d 7 c4 00 00 00 00 55 b4 
   3.1712 1  041             Tx   d 6 c4 fa 00 03 06 aa 
   3.1713 1  042             Tx   d 6 c4 fa 00 03 06 a5 
   3.1754 1  CA              Rx   d 8 54 00 80 00 00 01 30 00
   3.1755 1  CD              Rx   d 2 7E F4
   3.1758 1  153             Rx   d 6 41 3F 00 01 00 FF
   3.1764 1  CB              Rx   d 8 54 00 80 00 00 01 30 00
   3.1765 1  CE              Rx   d 2 80 00
   3.1767 1  154             Rx   d 6 41 3F 00 01 00 FF
   3.1812 1  047             Tx   d 7 04 00 00 00 00 5a ff 
   3.1814 1  048             Tx   d 7 04 00 00 00 00 55 44 
   3.1816 1  041             Tx   d 6 04 fa 00 03 06 aa 
   3.1817 1  042             Tx   d 6 04 fa 00 03 06 a5 
   3.1854 1  CA              Rx   d 8 54 00 80 00 00 01 50 00
   3.1855 1  CD              Rx   d 2 7E F4
   3.1857 1  153             Rx   d 6 41 3F 00 01 00 FF
   3.1864 1  CB              Rx   d 8 54 00 80 00 00 01 50 00
   3.1865 1  CE              Rx   d 2 80 00
   3.1867 1  154             Rx   d 6 41 3F 00 01 00 FF
   3.1907 1  047             Tx   d 7 44 00 00 00 00 5a af 
   3.1909 1  048             Tx   d 7 44 00 00 00 00 55 14 
   3.1910 1  041             Tx   d 6 44 fa 00 03 06 aa 
   3.1912 1  042             Tx   d 6 44 fa 00 03 06 a5 
   3.1954 1  CA              Rx   d 8 54 00 80 00 00 01 70 00
   3.1955 1  CD              Rx   d 2 7E F4
   3.1957 1  153             Rx   d 6 41 3F 00 01 00 FF
   3.1964 1  CB              Rx   d 8 54 00 80 00 00 01 70 00
   3.1965 1  CE              Rx   d 2 80 00
   3.1967 1  154             Rx   d 6 41 3F 00 01 00 FF
   3.2011 1  047             Tx   d 7 84 00 00 00 00 5a 5f 
   3.2014 1  048             Tx   d 7 84 00 00 00 00 55 e4 
   3.2015 1  041             Tx   d 6 84 fa 00 03 06 aa 
   3.2017 1  042             Tx   d 6 84 fa 00 03 06 a5 
   3.2054 1  CA              Rx   d 8 54 00 80 00 00 01 10 00
   3.2055 1  CD              Rx   d 2 7E F4
   3.2057 1  153             Rx   d 6 41 3F 00 01 00 FF
   3.2064 1  CB              Rx   d 8 54 00 80 00 00 01 10 00
   3.2065 1  CE              Rx   d 2 80 00
   3.2067 1  154             Rx   d 6 41 3F 00 01 00 FF
   3.2114 1  047             Tx   d 7 c4 00 00 00 00 5a 0f 
   3.2116 1  048             Tx   d 7 c4 00 00 00 00 55 b4 
   3.2118 1  041             Tx   d 6 c4 fa 00 03 06 aa 
   3.2119 1  042             Tx   d 6 c4 fa 00 03 06 a5 
   3.2154 1  CA              Rx   d 8 54 00 80 00 00 01 30 00
   3.2155 1  CD              Rx   d 2 7E F4
   3.2157 1  153             Rx   d 6 41 3F 00 01 00 FF
   3.2164 1  CB              Rx   d 8 54 00 80 00 00 01 30 00
   3.2165 1  CE              Rx   d 2 80 00
   3.2168 1  154             Rx   d 6 41 3F 00 01 00 FF
   3.2212 1  047             Tx   d 7 04 00 00 00 00 5a ff 
   3.2214 1  048             Tx   d 7 04 00 00 00 00 55 44 
   3.2216 1  041             Tx   d 6 04 fa 00 03 06 aa 
   3.2217 1  042             Tx   d 6 04 fa 00 03 06 a5 
   3.2254 1  CA              Rx   d 8 54 00 80 00 00 01 50 00
   3.2255 1  CD              Rx   d 2 7E F4
   3.2258 1  153             Rx   d 6 41 3F 00 01 00 FF
   3.2264 1  CB              Rx   d 8 54 00 80 00 00 01 50 00
   3.2265 1  CE              Rx   d 2 80 00
   3.2267 1  154             Rx   d 6 41 3F 00 01 00 FF
   3.2313 1  047             Tx   d 7 44 00 00 00 00 5a af 
   3.2317 1  048             Tx   d 7 44 00 00 00 00 55 14 
   3.2319 1  041             Tx   d 6 44 fa 00 03 06 aa 
   3.2321 1  042             Tx   d 6 44 fa 00 03 06 a5 
   3.2354 1  CA              Rx   d 8 54 00 80 00 00 00 70 00
